ZPLOT2 ASCII
  Measured Data, ZPlot:       3.5f
  Experiment Type:            Sweep Frequency, Control Voltage
  Date:                       11-05-2019
  Time:                       00:39:22
  Open Circuit Potential (V): 0.001
  Begin User Comments:        0
  End User Comments:          0
  Begin Experiment:           0
    Potential-DC:             0
    Potential-DC Type:        0
    Potential-AC:             20
    Potential-Monitor Type:   0
    Potential-Monitor TargetI:1
    Potential-Monitor Limit:  3000
    Potential-Monitor Error:  25
    Current-DC:               0
    Current-AC:               0.1
    Current-Monitor Type:     0
    Current-Monitor TargetE:  20
    Current-Monitor Limit:    60
    Current-Monitor Error:    25
    vs Freq-Initial:          3200000
    vs Freq-Final:            1
    vs Freq-Lin/Log Type:     1
    vs Freq-Linear Type:      1
    vs Freq-Linear Interval:  100
    vs Freq-Log Type:         0
    vs Freq-Log Interval:     10
    Harmonics:                3
    PolE-Initial:             0
    PolE-Final:               0.2
    PolE-InitialType:         0
    PolE-FinalType:           0
    PolE-SweepRate:           1
    PolE-SweepRateType:       0
    PolE-DataRate:            5
    PolE-SegmentNo:           2
    PolE-IR:                  0
    AmplE-Initial:            10
    AmplE-Final:              200
    AmplE-SweepRate:          1
    AmplE-DataRate:           5
    AmplE-SegmentNo:          2
    PolI-Initial:             0
    PolI-Vertex:              0.01
    PolI-Final:               0.01
    PolI-SweepRate:           0.1
    PolI-SweepRateType:       0
    PolI-DataRate:            5
    PolI-SegmentNo:           2
    AmplI-Initial:            0.1
    AmplI-Final:              10
    AmplI-SweepRate:          0.1
    AmplI-DataRate:           5
    AmplI-SegmentNo:          2
    vs Time-Freq:             0.001
    vs Time-Harmonic:         1
    vs Time-Total Time:       100
    vs Time-Time Type:        0
    vs Time-Interval:         5
  End Experiment:             0
  Begin Pstat/Gstat:          1287
    Booster Type:             0
    Booster Name:             None
    Pstat Range High:         0
    Pstat Range Low:          0
    Pstat Range Frequency:    6
    Pstat Range Minimum:      0
    Pstat Limit Range:        0
    Pstat Limit Type:         0
    Pstat Bandwidth:          2
    Pstat Use Aux:            0
    Gstat Range:              0
    Gstat Bandwidth:          2
    Filter:                   0
    Error Beep:               1
    Bias Rejection:           1
    Attenuator:               2
    Grounding:                0
    Calibration File
  End Pstat/Gstat:            1287
  Begin Analyzer:             1260
    Z60 Mode:                 3
    Z60 GD Freq-:             5
    Z60 GD Freq+:             5
    Bias Voltage:             0
    Auto Integration Type:    0
    Integration Time Type:    0
    Integration Seconds:      0.2
    Integration Cycles:       1
    Delay Time Type:          1
    Delay Seconds:            0
    Delay Cycles:             0
    Source:                   2
    SourceI:                  1
    Error Beep:               0
    Range V1:                 0
    Coupling V1:              0
    Input V1:                 0
    Outer V1:                 1
    Location V1:              0
    Range V2:                 0
    Coupling V2:              0
    Input V2:                 0
    Outer V2:                 1
    Location V2:              0
    Coupling I:               0
  End Analyzer:               1260
  Begin Information:          Cell Information
    Surface Area:             1
    Density:                  0
    Weight:                   0
    Polarity:                 0
    PolarityI:                0
    Corrosion Unit Type:      0
    Reference Type:           0
    Reference Potential:      0
    User-Defined Potential:   0
    Stern-Geary:              26
  End Information:            Cell Information
  Null Configuration:         0,3,0,1,3200000,1
  Data Points:                33
  Freq(Hz)	Ampl	Bias	Time(Sec)	Z'(a)	Z''(b)	Aux	Err	Range
End Comments
3.200000E+06	2.0000E-02	1.0000E-03	4.430000E+00	1.9685E+01	1.8744E+01	0.0000E+00	0	3
2.541851E+06	2.0000E-02	1.0000E-03	6.900000E+00	8.8014E+01	2.6215E+02	0.0000E+00	0	4
2.019064E+06	2.0000E-02	1.0000E-03	9.240000E+00	-3.0667E+00	-6.4245E+00	0.0000E+00	0	3
1.603799E+06	2.0000E-02	1.0000E-03	9.920000E+00	1.7058E+01	-8.8049E+00	0.0000E+00	0	3
1.273943E+06	2.0000E-02	1.0000E-03	1.064000E+01	1.1044E+01	-1.1145E+01	0.0000E+00	0	3
1.011929E+06	2.0000E-02	1.0000E-03	1.134000E+01	1.7063E+01	-8.4365E+00	0.0000E+00	0	3
8.038037E+05	2.0000E-02	1.0000E-03	1.204000E+01	1.9980E+01	-7.6844E+00	0.0000E+00	0	3
6.384839E+05	2.0000E-02	1.0000E-03	1.451000E+01	2.1784E+01	-7.5321E+00	0.0000E+00	0	3
5.071658E+05	2.0000E-02	1.0000E-03	1.521000E+01	8.6328E+00	-1.1019E+00	0.0000E+00	0	3
4.028561E+05	2.0000E-02	1.0000E-03	1.591000E+01	2.4097E+01	-7.7194E+00	0.0000E+00	0	3
3.200000E+05	2.0000E-02	1.0000E-03	1.659000E+01	1.1679E+01	-1.9309E+00	0.0000E+00	0	3
2.541850E+05	2.0000E-02	1.0000E-03	1.732000E+01	2.3839E+01	-6.6976E+00	0.0000E+00	0	3
2.019063E+05	2.0000E-02	1.0000E-03	1.813000E+01	1.4223E+01	-2.7458E+00	0.0000E+00	0	3
1.603799E+05	2.0000E-02	1.0000E-03	1.895000E+01	2.8699E+01	-9.8237E+00	0.0000E+00	0	3
1.273943E+05	2.0000E-02	1.0000E-03	1.977000E+01	2.9586E+01	-9.9382E+00	0.0000E+00	0	3
1.011929E+05	2.0000E-02	1.0000E-03	2.057000E+01	3.1857E+01	-1.0867E+01	0.0000E+00	0	3
8.038037E+04	2.0000E-02	1.0000E-03	2.140000E+01	3.2890E+01	-1.1648E+01	0.0000E+00	0	3
6.384839E+04	2.0000E-02	1.0000E-03	2.550000E+01	3.5255E+01	-1.4572E+01	0.0000E+00	0	3
5.071658E+04	2.0000E-02	1.0000E-03	2.644000E+01	3.1856E+01	-1.5000E+01	0.0000E+00	0	3
4.028561E+04	2.0000E-02	1.0000E-03	2.738000E+01	3.7735E+01	-2.0445E+01	0.0000E+00	0	3
3.200000E+04	2.0000E-02	1.0000E-03	2.832000E+01	4.1700E+01	-2.1048E+01	0.0000E+00	0	3
2.541850E+04	2.0000E-02	1.0000E-03	2.926000E+01	4.5168E+01	-2.3384E+01	0.0000E+00	0	3
2.019063E+04	2.0000E-02	1.0000E-03	3.018000E+01	4.7999E+01	-2.4807E+01	0.0000E+00	0	3
1.603799E+04	2.0000E-02	1.0000E-03	3.112000E+01	5.2118E+01	-2.6248E+01	0.0000E+00	0	3
1.273943E+04	2.0000E-02	1.0000E-03	3.204000E+01	5.6635E+01	-2.8755E+01	0.0000E+00	0	3
1.011929E+04	2.0000E-02	1.0000E-03	3.298000E+01	6.0940E+01	-3.0549E+01	0.0000E+00	0	3
8.038037E+03	2.0000E-02	1.0000E-03	3.391000E+01	6.5858E+01	-3.0968E+01	0.0000E+00	0	3
6.384839E+03	2.0000E-02	1.0000E-03	3.485000E+01	7.0477E+01	-3.3247E+01	0.0000E+00	0	3
5.071658E+03	2.0000E-02	1.0000E-03	3.604000E+01	6.9256E+01	-3.0997E+01	0.0000E+00	0	3
4.028561E+03	2.0000E-02	1.0000E-03	3.698000E+01	2.8449E+01	-3.6002E+00	0.0000E+00	0	3
3.200000E+03	2.0000E-02	1.0000E-03	3.991000E+01	8.1595E+01	-3.3675E+01	0.0000E+00	0	4
2.541850E+03	2.0000E-02	1.0000E-03	4.071000E+01	2.0880E+02	-2.0460E+01	0.0000E+00	0	4
2.019063E+03	2.0000E-02	1.0000E-03	4.153000E+01	1.8844E+02	-6.7874E+01	0.0000E+00	0	4
