ZPLOT2 ASCII
  Measured Data, ZPlot:       3.5f
  Experiment Type:            Sweep Frequency, Control Voltage
  Date:                       11-05-2019
  Time:                       15:26:56
  Open Circuit Potential (V): 0.002
  Begin User Comments:        0
  End User Comments:          0
  Begin Experiment:           0
    Potential-DC:             0.15
    Potential-DC Type:        0
    Potential-AC:             20
    Potential-Monitor Type:   0
    Potential-Monitor TargetI:1
    Potential-Monitor Limit:  3000
    Potential-Monitor Error:  25
    Current-DC:               0
    Current-AC:               0.1
    Current-Monitor Type:     0
    Current-Monitor TargetE:  20
    Current-Monitor Limit:    60
    Current-Monitor Error:    25
    vs Freq-Initial:          3200000
    vs Freq-Final:            0.1
    vs Freq-Lin/Log Type:     1
    vs Freq-Linear Type:      1
    vs Freq-Linear Interval:  100
    vs Freq-Log Type:         0
    vs Freq-Log Interval:     10
    Harmonics:                3
    PolE-Initial:             0
    PolE-Final:               0.2
    PolE-InitialType:         0
    PolE-FinalType:           0
    PolE-SweepRate:           1
    PolE-SweepRateType:       0
    PolE-DataRate:            5
    PolE-SegmentNo:           2
    PolE-IR:                  0
    AmplE-Initial:            10
    AmplE-Final:              200
    AmplE-SweepRate:          1
    AmplE-DataRate:           5
    AmplE-SegmentNo:          2
    PolI-Initial:             0
    PolI-Vertex:              0.01
    PolI-Final:               0.01
    PolI-SweepRate:           0.1
    PolI-SweepRateType:       0
    PolI-DataRate:            5
    PolI-SegmentNo:           2
    AmplI-Initial:            0.1
    AmplI-Final:              10
    AmplI-SweepRate:          0.1
    AmplI-DataRate:           5
    AmplI-SegmentNo:          2
    vs Time-Freq:             0.001
    vs Time-Harmonic:         1
    vs Time-Total Time:       100
    vs Time-Time Type:        0
    vs Time-Interval:         5
  End Experiment:             0
  Begin Pstat/Gstat:          1287
    Booster Type:             0
    Booster Name:             None
    Pstat Range High:         0
    Pstat Range Low:          0
    Pstat Range Frequency:    6
    Pstat Range Minimum:      0
    Pstat Limit Range:        0
    Pstat Limit Type:         1
    Pstat Bandwidth:          2
    Pstat Use Aux:            0
    Gstat Range:              0
    Gstat Bandwidth:          2
    Filter:                   1
    Error Beep:               1
    Bias Rejection:           1
    Attenuator:               2
    Grounding:                0
    Calibration File
  End Pstat/Gstat:            1287
  Begin Analyzer:             1260
    Z60 Mode:                 3
    Z60 GD Freq-:             5
    Z60 GD Freq+:             5
    Bias Voltage:             0
    Auto Integration Type:    0
    Integration Time Type:    0
    Integration Seconds:      0.2
    Integration Cycles:       1
    Delay Time Type:          1
    Delay Seconds:            0
    Delay Cycles:             0
    Source:                   2
    SourceI:                  1
    Error Beep:               0
    Range V1:                 3
    Coupling V1:              0
    Input V1:                 0
    Outer V1:                 1
    Location V1:              0
    Range V2:                 3
    Coupling V2:              0
    Input V2:                 0
    Outer V2:                 1
    Location V2:              0
    Coupling I:               0
  End Analyzer:               1260
  Begin Information:          Cell Information
    Surface Area:             1
    Density:                  0
    Weight:                   0
    Polarity:                 0
    PolarityI:                0
    Corrosion Unit Type:      0
    Reference Type:           0
    Reference Potential:      0
    User-Defined Potential:   0
    Stern-Geary:              26
  End Information:            Cell Information
  Null Configuration:         0,3,0,1,3200000,0.1
  Data Points:                77
  Freq(Hz)	Ampl	Bias	Time(Sec)	Z'(a)	Z''(b)	Aux	Err	Range
End Comments
3.200000E+06	2.0000E-02	1.5200E-01	4.420000E+00	9.0185E+01	1.6924E+01	0.0000E+00	0	3
2.541851E+06	2.0000E-02	1.5200E-01	5.120000E+00	-1.9488E+01	3.1370E+01	0.0000E+00	0	3
2.019064E+06	2.0000E-02	1.5200E-01	5.830000E+00	1.5495E+01	9.9407E+00	0.0000E+00	0	3
1.603799E+06	2.0000E-02	1.5200E-01	6.510000E+00	1.7079E+01	-7.3539E+00	0.0000E+00	0	3
1.273943E+06	2.0000E-02	1.5200E-01	7.230000E+00	1.1640E+01	-8.4646E+00	0.0000E+00	0	3
1.011929E+06	2.0000E-02	1.5200E-01	7.930000E+00	1.3577E+01	-6.2670E+00	0.0000E+00	0	3
8.038037E+05	2.0000E-02	1.5200E-01	8.610000E+00	1.5645E+01	-6.0573E+00	0.0000E+00	0	3
6.384839E+05	2.0000E-02	1.5200E-01	1.108000E+01	1.7675E+01	-6.6855E+00	0.0000E+00	0	3
5.071658E+05	2.0000E-02	1.5200E-01	1.178000E+01	1.8905E+01	-7.9988E+00	0.0000E+00	0	3
4.028561E+05	2.0000E-02	1.5200E-01	1.248000E+01	2.0811E+01	-8.8613E+00	0.0000E+00	0	3
3.200000E+05	2.0000E-02	1.5200E-01	1.328000E+01	2.2364E+01	-9.8996E+00	0.0000E+00	0	3
2.541850E+05	2.0000E-02	1.5200E-01	1.401000E+01	2.3918E+01	-1.0774E+01	0.0000E+00	0	3
2.019063E+05	2.0000E-02	1.5200E-01	1.472000E+01	2.5594E+01	-1.1825E+01	0.0000E+00	0	3
1.603799E+05	2.0000E-02	1.5200E-01	1.541000E+01	2.7462E+01	-1.2601E+01	0.0000E+00	0	3
1.273943E+05	2.0000E-02	1.5200E-01	1.612000E+01	2.9835E+01	-1.3466E+01	0.0000E+00	0	3
1.011929E+05	2.0000E-02	1.5200E-01	1.682000E+01	3.1442E+01	-1.3544E+01	0.0000E+00	0	3
8.038037E+04	2.0000E-02	1.5200E-01	1.750000E+01	3.4056E+01	-1.4281E+01	0.0000E+00	0	3
6.384839E+04	2.0000E-02	1.5200E-01	2.148000E+01	3.5971E+01	-1.4846E+01	0.0000E+00	0	3
5.071658E+04	2.0000E-02	1.5200E-01	2.220000E+01	3.4709E+01	-1.4748E+01	0.0000E+00	0	3
4.028561E+04	2.0000E-02	1.5200E-01	2.289000E+01	4.0381E+01	-1.6084E+01	0.0000E+00	0	3
3.200000E+04	2.0000E-02	1.5200E-01	2.361000E+01	4.3133E+01	-1.7201E+01	0.0000E+00	0	3
2.541850E+04	2.0000E-02	1.5200E-01	2.430000E+01	4.5599E+01	-1.7437E+01	0.0000E+00	0	3
2.019063E+04	2.0000E-02	1.5200E-01	2.501000E+01	4.7859E+01	-1.7790E+01	0.0000E+00	0	3
1.603799E+04	2.0000E-02	1.5200E-01	2.571000E+01	5.1235E+01	-1.7659E+01	0.0000E+00	0	3
1.273943E+04	2.0000E-02	1.5200E-01	2.641000E+01	5.3543E+01	-1.8618E+01	0.0000E+00	0	3
1.011929E+04	2.0000E-02	1.5200E-01	2.712000E+01	5.5922E+01	-1.9194E+01	0.0000E+00	0	3
8.038037E+03	2.0000E-02	1.5200E-01	2.794000E+01	6.0586E+01	-1.9646E+01	0.0000E+00	0	3
6.384839E+03	2.0000E-02	1.5200E-01	2.864000E+01	6.1055E+01	-2.0156E+01	0.0000E+00	0	3
5.071658E+03	2.0000E-02	1.5200E-01	2.934000E+01	6.3604E+01	-2.1146E+01	0.0000E+00	0	3
4.028561E+03	2.0000E-02	1.5200E-01	3.005000E+01	6.7119E+01	-2.1802E+01	0.0000E+00	0	3
3.200000E+03	2.0000E-02	1.5200E-01	3.075000E+01	6.9828E+01	-2.3306E+01	0.0000E+00	0	3
2.541850E+03	2.0000E-02	1.5200E-01	3.145000E+01	7.3248E+01	-2.3928E+01	0.0000E+00	0	3
2.019063E+03	2.0000E-02	1.5200E-01	3.216000E+01	7.6799E+01	-2.5741E+01	0.0000E+00	0	3
1.603799E+03	2.0000E-02	1.5200E-01	3.297000E+01	8.0441E+01	-2.7254E+01	0.0000E+00	0	3
1.273943E+03	2.0000E-02	1.5200E-01	3.379000E+01	8.4574E+01	-2.8677E+01	0.0000E+00	0	3
1.011929E+03	2.0000E-02	1.5200E-01	3.461000E+01	8.8695E+01	-3.0276E+01	0.0000E+00	0	3
8.038037E+02	2.0000E-02	1.5200E-01	3.543000E+01	9.1318E+01	-3.1628E+01	0.0000E+00	0	3
6.384839E+02	2.0000E-02	1.5200E-01	3.624000E+01	9.7424E+01	-3.3545E+01	0.0000E+00	0	3
5.071658E+02	2.0000E-02	1.5200E-01	3.705000E+01	1.0228E+02	-3.5002E+01	0.0000E+00	0	3
4.028561E+02	2.0000E-02	1.5200E-01	3.787000E+01	1.0839E+02	-3.6200E+01	0.0000E+00	0	3
3.200000E+02	2.0000E-02	1.5200E-01	3.881000E+01	1.1060E+02	-4.3589E+01	0.0000E+00	0	3
2.541850E+02	2.0000E-02	1.5200E-01	4.128000E+01	1.1977E+02	-3.8542E+01	0.0000E+00	0	3
2.019064E+02	2.0000E-02	1.5200E-01	4.196000E+01	1.2634E+02	-3.8930E+01	0.0000E+00	0	3
1.603799E+02	2.0000E-02	1.5200E-01	4.268000E+01	1.3089E+02	-4.1012E+01	0.0000E+00	0	3
1.273943E+02	2.0000E-02	1.5200E-01	4.339000E+01	1.3653E+02	-4.1950E+01	0.0000E+00	0	3
1.011929E+02	2.0000E-02	1.5200E-01	4.409000E+01	1.4475E+02	-4.3337E+01	0.0000E+00	0	3
8.038037E+01	2.0000E-02	1.5200E-01	4.479000E+01	1.4825E+02	-4.4242E+01	0.0000E+00	0	3
6.384839E+01	2.0000E-02	1.5200E-01	4.549000E+01	1.6294E+02	-5.0616E+01	0.0000E+00	0	3
5.071658E+01	2.0000E-02	1.5200E-01	4.618000E+01	1.6442E+02	-4.6489E+01	0.0000E+00	0	3
4.028561E+01	2.0000E-02	1.5200E-01	4.687000E+01	1.7263E+02	-4.8802E+01	0.0000E+00	0	3
3.200000E+01	2.0000E-02	1.5200E-01	4.760000E+01	1.7952E+02	-4.5420E+01	0.0000E+00	0	3
2.541850E+01	2.0000E-02	1.5200E-01	4.841000E+01	1.8882E+02	-4.4055E+01	0.0000E+00	0	3
2.019063E+01	2.0000E-02	1.5200E-01	4.924000E+01	1.9549E+02	-4.2972E+01	0.0000E+00	0	3
1.603799E+01	2.0000E-02	1.5200E-01	5.006000E+01	2.0354E+02	-3.7617E+01	0.0000E+00	0	3
1.273943E+01	2.0000E-02	1.5200E-01	5.086000E+01	2.0910E+02	-3.4471E+01	0.0000E+00	0	3
1.011929E+01	2.0000E-02	1.5200E-01	5.170000E+01	2.1349E+02	-3.1004E+01	0.0000E+00	0	3
8.038040E+00	2.0000E-02	1.5200E-01	5.251000E+01	2.1787E+02	-2.4928E+01	0.0000E+00	0	3
6.384840E+00	2.0000E-02	1.5200E-01	5.356000E+01	2.2028E+02	-2.1670E+01	0.0000E+00	0	3
5.071660E+00	2.0000E-02	1.5200E-01	5.462000E+01	2.2241E+02	-1.9441E+01	0.0000E+00	0	3
4.028560E+00	2.0000E-02	1.5200E-01	5.544000E+01	2.2375E+02	-1.6689E+01	0.0000E+00	0	3
3.200000E+00	2.0000E-02	1.5200E-01	5.638000E+01	2.2524E+02	-1.2997E+01	0.0000E+00	0	3
2.541850E+00	2.0000E-02	1.5200E-01	5.743000E+01	2.2615E+02	-1.2834E+01	0.0000E+00	0	3
2.019060E+00	2.0000E-02	1.5200E-01	5.872000E+01	2.2732E+02	-1.0484E+01	0.0000E+00	0	3
1.603800E+00	2.0000E-02	1.5200E-01	5.989000E+01	2.2811E+02	-1.0448E+01	0.0000E+00	0	3
1.273940E+00	2.0000E-02	1.5200E-01	6.117000E+01	2.2911E+02	-1.0112E+01	0.0000E+00	0	3
1.011930E+00	2.0000E-02	1.5200E-01	6.270000E+01	2.2951E+02	-9.4259E+00	0.0000E+00	0	3
8.038000E-01	2.0000E-02	1.5200E-01	6.444000E+01	2.2975E+02	-9.3541E+00	0.0000E+00	0	3
6.384800E-01	2.0000E-02	1.5200E-01	6.761000E+01	2.3030E+02	-1.0023E+01	0.0000E+00	0	3
5.071700E-01	2.0000E-02	1.5200E-01	7.007000E+01	2.3184E+02	-1.0801E+01	0.0000E+00	0	3
4.028600E-01	2.0000E-02	1.5200E-01	7.311000E+01	2.3352E+02	-1.1723E+01	0.0000E+00	0	3
3.200000E-01	2.0000E-02	1.5200E-01	7.674000E+01	2.3397E+02	-1.2279E+01	0.0000E+00	0	3
2.541900E-01	2.0000E-02	1.5200E-01	8.119000E+01	2.3567E+02	-1.3482E+01	0.0000E+00	0	3
2.019100E-01	2.0000E-02	1.5200E-01	8.667000E+01	2.3750E+02	-1.4455E+01	0.0000E+00	0	3
1.603800E-01	2.0000E-02	1.5200E-01	9.348000E+01	2.3919E+02	-1.5452E+01	0.0000E+00	0	3
1.273900E-01	2.0000E-02	1.5200E-01	1.019100E+02	2.4224E+02	-1.6083E+01	0.0000E+00	0	3
1.011900E-01	2.0000E-02	1.5200E-01	1.123300E+02	2.4494E+02	-1.7558E+01	0.0000E+00	0	3
1.000000E-01	2.0000E-02	1.5200E-01	1.229600E+02	2.4488E+02	-1.7894E+01	0.0000E+00	0	3
