ZPLOT2 ASCII
  Measured Data, ZPlot:       3.5f
  Experiment Type:            Sweep Frequency, Control Voltage
  Date:                       11-05-2019
  Time:                       15:21:11
  Open Circuit Potential (V): 0.0021
  Begin User Comments:        0
  End User Comments:          0
  Begin Experiment:           0
    Potential-DC:             -0.22
    Potential-DC Type:        0
    Potential-AC:             20
    Potential-Monitor Type:   0
    Potential-Monitor TargetI:1
    Potential-Monitor Limit:  3000
    Potential-Monitor Error:  25
    Current-DC:               0
    Current-AC:               0.1
    Current-Monitor Type:     0
    Current-Monitor TargetE:  20
    Current-Monitor Limit:    60
    Current-Monitor Error:    25
    vs Freq-Initial:          1000000
    vs Freq-Final:            0.1
    vs Freq-Lin/Log Type:     1
    vs Freq-Linear Type:      1
    vs Freq-Linear Interval:  100
    vs Freq-Log Type:         0
    vs Freq-Log Interval:     10
    Harmonics:                3
    PolE-Initial:             0
    PolE-Final:               0.2
    PolE-InitialType:         0
    PolE-FinalType:           0
    PolE-SweepRate:           1
    PolE-SweepRateType:       0
    PolE-DataRate:            5
    PolE-SegmentNo:           2
    PolE-IR:                  0
    AmplE-Initial:            10
    AmplE-Final:              200
    AmplE-SweepRate:          1
    AmplE-DataRate:           5
    AmplE-SegmentNo:          2
    PolI-Initial:             0
    PolI-Vertex:              0.01
    PolI-Final:               0.01
    PolI-SweepRate:           0.1
    PolI-SweepRateType:       0
    PolI-DataRate:            5
    PolI-SegmentNo:           2
    AmplI-Initial:            0.1
    AmplI-Final:              10
    AmplI-SweepRate:          0.1
    AmplI-DataRate:           5
    AmplI-SegmentNo:          2
    vs Time-Freq:             0.001
    vs Time-Harmonic:         1
    vs Time-Total Time:       100
    vs Time-Time Type:        0
    vs Time-Interval:         5
  End Experiment:             0
  Begin Pstat/Gstat:          1287
    Booster Type:             0
    Booster Name:             None
    Pstat Range High:         0
    Pstat Range Low:          0
    Pstat Range Frequency:    6
    Pstat Range Minimum:      0
    Pstat Limit Range:        0
    Pstat Limit Type:         1
    Pstat Bandwidth:          2
    Pstat Use Aux:            0
    Gstat Range:              0
    Gstat Bandwidth:          2
    Filter:                   1
    Error Beep:               1
    Bias Rejection:           1
    Attenuator:               2
    Grounding:                0
    Calibration File
  End Pstat/Gstat:            1287
  Begin Analyzer:             1260
    Z60 Mode:                 3
    Z60 GD Freq-:             5
    Z60 GD Freq+:             5
    Bias Voltage:             0
    Auto Integration Type:    0
    Integration Time Type:    0
    Integration Seconds:      0.2
    Integration Cycles:       1
    Delay Time Type:          1
    Delay Seconds:            0
    Delay Cycles:             0
    Source:                   2
    SourceI:                  1
    Error Beep:               0
    Range V1:                 3
    Coupling V1:              0
    Input V1:                 0
    Outer V1:                 1
    Location V1:              0
    Range V2:                 3
    Coupling V2:              0
    Input V2:                 0
    Outer V2:                 1
    Location V2:              0
    Coupling I:               0
  End Analyzer:               1260
  Begin Information:          Cell Information
    Surface Area:             1
    Density:                  0
    Weight:                   0
    Polarity:                 0
    PolarityI:                0
    Corrosion Unit Type:      0
    Reference Type:           0
    Reference Potential:      0
    User-Defined Potential:   0
    Stern-Geary:              26
  End Information:            Cell Information
  Null Configuration:         0,3,0,1,1000000,0.1
  Data Points:                71
  Freq(Hz)	Ampl	Bias	Time(Sec)	Z'(a)	Z''(b)	Aux	Err	Range
End Comments
1.000000E+06	2.0000E-02	-2.1790E-01	6.110000E+00	1.6652E+01	-4.9489E+00	0.0000E+00	0	3
7.943282E+05	2.0000E-02	-2.1790E-01	6.800000E+00	1.7579E+01	-5.0039E+00	0.0000E+00	0	3
6.309573E+05	2.0000E-02	-2.1790E-01	9.260000E+00	1.9010E+01	-5.0218E+00	0.0000E+00	0	3
5.011872E+05	2.0000E-02	-2.1790E-01	9.950000E+00	2.0699E+01	-5.3112E+00	0.0000E+00	0	3
3.981072E+05	2.0000E-02	-2.1790E-01	1.067000E+01	2.1440E+01	-5.8217E+00	0.0000E+00	0	3
3.162278E+05	2.0000E-02	-2.1790E-01	1.137000E+01	2.2519E+01	-6.0960E+00	0.0000E+00	0	3
2.511886E+05	2.0000E-02	-2.1790E-01	1.207000E+01	2.3682E+01	-6.4727E+00	0.0000E+00	0	3
1.995262E+05	2.0000E-02	-2.1790E-01	1.277000E+01	2.4786E+01	-6.8393E+00	0.0000E+00	0	3
1.584893E+05	2.0000E-02	-2.1790E-01	1.346000E+01	2.5772E+01	-7.1431E+00	0.0000E+00	0	3
1.258925E+05	2.0000E-02	-2.1790E-01	1.418000E+01	2.6824E+01	-7.3208E+00	0.0000E+00	0	3
1.000000E+05	2.0000E-02	-2.1790E-01	1.488000E+01	2.8126E+01	-7.4643E+00	0.0000E+00	0	3
7.943282E+04	2.0000E-02	-2.1790E-01	1.558000E+01	2.9261E+01	-7.8320E+00	0.0000E+00	0	3
6.309573E+04	2.0000E-02	-2.1790E-01	1.956000E+01	3.0438E+01	-8.2750E+00	0.0000E+00	0	3
5.011872E+04	2.0000E-02	-2.1790E-01	2.026000E+01	2.9854E+01	-9.2421E+00	0.0000E+00	0	3
3.981072E+04	2.0000E-02	-2.1790E-01	2.096000E+01	3.2082E+01	-1.0026E+01	0.0000E+00	0	3
3.162278E+04	2.0000E-02	-2.1790E-01	2.169000E+01	3.4062E+01	-9.9164E+00	0.0000E+00	0	3
2.511886E+04	2.0000E-02	-2.1790E-01	2.238000E+01	3.5636E+01	-1.0249E+01	0.0000E+00	0	3
1.995262E+04	2.0000E-02	-2.1790E-01	2.308000E+01	3.7419E+01	-1.0438E+01	0.0000E+00	0	3
1.584893E+04	2.0000E-02	-2.1790E-01	2.378000E+01	3.9219E+01	-1.0681E+01	0.0000E+00	0	3
1.258925E+04	2.0000E-02	-2.1790E-01	2.449000E+01	4.0998E+01	-1.0559E+01	0.0000E+00	0	3
1.000000E+04	2.0000E-02	-2.1790E-01	2.519000E+01	4.2870E+01	-1.0487E+01	0.0000E+00	0	3
7.943282E+03	2.0000E-02	-2.1790E-01	2.588000E+01	4.4540E+01	-1.0148E+01	0.0000E+00	0	3
6.309573E+03	2.0000E-02	-2.1790E-01	2.660000E+01	4.6456E+01	-1.0185E+01	0.0000E+00	0	3
5.011872E+03	2.0000E-02	-2.1790E-01	2.729000E+01	4.7871E+01	-9.3422E+00	0.0000E+00	0	3
3.981072E+03	2.0000E-02	-2.1790E-01	2.800000E+01	4.9231E+01	-8.8528E+00	0.0000E+00	0	3
3.162278E+03	2.0000E-02	-2.1790E-01	2.870000E+01	5.0810E+01	-8.3078E+00	0.0000E+00	0	3
2.511886E+03	2.0000E-02	-2.1790E-01	2.940000E+01	5.1815E+01	-7.5485E+00	0.0000E+00	0	3
1.995262E+03	2.0000E-02	-2.1790E-01	3.010000E+01	5.2929E+01	-7.1273E+00	0.0000E+00	0	3
1.584893E+03	2.0000E-02	-2.1790E-01	3.092000E+01	5.3707E+01	-6.6512E+00	0.0000E+00	0	3
1.258925E+03	2.0000E-02	-2.1790E-01	3.174000E+01	5.4351E+01	-6.2657E+00	0.0000E+00	0	3
1.000000E+03	2.0000E-02	-2.1790E-01	3.254000E+01	5.4836E+01	-5.8432E+00	0.0000E+00	0	3
7.943282E+02	2.0000E-02	-2.1790E-01	3.338000E+01	5.5514E+01	-5.6971E+00	0.0000E+00	0	3
6.309573E+02	2.0000E-02	-2.1790E-01	3.420000E+01	5.5718E+01	-5.6535E+00	0.0000E+00	0	3
5.011872E+02	2.0000E-02	-2.1790E-01	3.501000E+01	5.6513E+01	-5.8478E+00	0.0000E+00	0	3
3.981072E+02	2.0000E-02	-2.1790E-01	3.583000E+01	5.6847E+01	-6.2274E+00	0.0000E+00	0	3
3.162278E+02	2.0000E-02	-2.1790E-01	3.666000E+01	5.6458E+01	-6.1637E+00	0.0000E+00	0	3
2.511886E+02	2.0000E-02	-2.1790E-01	3.911000E+01	5.7664E+01	-7.4326E+00	0.0000E+00	0	3
1.995262E+02	2.0000E-02	-2.1790E-01	3.981000E+01	5.8274E+01	-8.3013E+00	0.0000E+00	0	3
1.584893E+02	2.0000E-02	-2.1790E-01	4.049000E+01	5.8461E+01	-1.0163E+01	0.0000E+00	0	3
1.258925E+02	2.0000E-02	-2.1790E-01	4.122000E+01	5.9778E+01	-1.0632E+01	0.0000E+00	0	3
1.000000E+02	2.0000E-02	-2.1790E-01	4.191000E+01	6.0743E+01	-1.2783E+01	0.0000E+00	0	3
7.943282E+01	2.0000E-02	-2.1790E-01	4.261000E+01	6.1748E+01	-1.5085E+01	0.0000E+00	0	3
6.309573E+01	2.0000E-02	-2.1790E-01	4.332000E+01	6.7097E+01	-1.1104E+01	0.0000E+00	0	3
5.011872E+01	2.0000E-02	-2.1790E-01	4.401000E+01	6.5784E+01	-1.9244E+01	0.0000E+00	0	3
3.981072E+01	2.0000E-02	-2.1790E-01	4.473000E+01	6.9481E+01	-2.3278E+01	0.0000E+00	0	3
3.162278E+01	2.0000E-02	-2.1790E-01	4.542000E+01	7.3919E+01	-2.5426E+01	0.0000E+00	0	3
2.511886E+01	2.0000E-02	-2.1790E-01	4.799000E+01	7.0894E+01	3.1045E-01	0.0000E+00	0	4
1.995262E+01	2.0000E-02	-2.1790E-01	4.870000E+01	8.3059E+01	-3.1772E+01	0.0000E+00	0	4
1.584893E+01	2.0000E-02	-2.1790E-01	4.953000E+01	8.9159E+01	-3.3591E+01	0.0000E+00	0	4
1.258925E+01	2.0000E-02	-2.1790E-01	5.032000E+01	9.6534E+01	-3.4068E+01	0.0000E+00	0	4
1.000000E+01	2.0000E-02	-2.1790E-01	5.116000E+01	1.0228E+02	-3.5451E+01	0.0000E+00	0	4
7.943280E+00	2.0000E-02	-2.1790E-01	5.198000E+01	1.0899E+02	-3.4736E+01	0.0000E+00	0	4
6.309570E+00	2.0000E-02	-2.1790E-01	5.302000E+01	1.1511E+02	-3.3909E+01	0.0000E+00	0	4
5.011870E+00	2.0000E-02	-2.1790E-01	5.386000E+01	1.2085E+02	-3.2255E+01	0.0000E+00	0	4
3.981070E+00	2.0000E-02	-2.1790E-01	5.480000E+01	1.2639E+02	-2.9345E+01	0.0000E+00	0	4
3.162280E+00	2.0000E-02	-2.1790E-01	5.597000E+01	1.3049E+02	-2.7669E+01	0.0000E+00	0	4
2.511890E+00	2.0000E-02	-2.1790E-01	5.701000E+01	1.3411E+02	-2.5785E+01	0.0000E+00	0	4
1.995260E+00	2.0000E-02	-2.1790E-01	5.808000E+01	1.3785E+02	-2.2930E+01	0.0000E+00	0	4
1.584890E+00	2.0000E-02	-2.1790E-01	5.924000E+01	1.4083E+02	-2.0572E+01	0.0000E+00	0	4
1.258930E+00	2.0000E-02	-2.1790E-01	6.052000E+01	1.4321E+02	-1.8698E+01	0.0000E+00	0	4
1.000000E+00	2.0000E-02	-2.1790E-01	6.205000E+01	1.4479E+02	-1.7603E+01	0.0000E+00	0	4
7.943300E-01	2.0000E-02	-2.1790E-01	6.380000E+01	1.4748E+02	-1.5487E+01	0.0000E+00	0	4
6.309600E-01	2.0000E-02	-2.1790E-01	6.637000E+01	1.4741E+02	-1.4272E+01	0.0000E+00	0	4
5.011900E-01	2.0000E-02	-2.1790E-01	6.895000E+01	1.4970E+02	-1.2354E+01	0.0000E+00	0	4
3.981100E-01	2.0000E-02	-2.1790E-01	7.199000E+01	1.5138E+02	-1.3021E+01	0.0000E+00	0	4
3.162300E-01	2.0000E-02	-2.1790E-01	7.574000E+01	1.5047E+02	-1.2346E+01	0.0000E+00	0	4
2.511900E-01	2.0000E-02	-2.1790E-01	8.030000E+01	1.5073E+02	-1.0727E+01	0.0000E+00	0	4
1.995300E-01	2.0000E-02	-2.1790E-01	8.581000E+01	1.5148E+02	-8.4761E+00	0.0000E+00	0	4
1.584900E-01	2.0000E-02	-2.1790E-01	9.271000E+01	1.5293E+02	-6.5636E+00	0.0000E+00	0	4
1.258900E-01	2.0000E-02	-2.1790E-01	1.012600E+02	1.5429E+02	-5.1250E+00	0.0000E+00	0	4
1.000000E-01	2.0000E-02	-2.1790E-01	1.117800E+02	1.5520E+02	-4.2489E+00	0.0000E+00	0	4
