ZPLOT2 ASCII
  Measured Data, ZPlot:       3.5f
  Experiment Type:            Sweep Frequency, Control Voltage
  Date:                       11-05-2019
  Time:                       01:11:32
  Open Circuit Potential (V): 0.0026
  Begin User Comments:        0
  End User Comments:          0
  Begin Experiment:           0
    Potential-DC:             -0.22
    Potential-DC Type:        0
    Potential-AC:             20
    Potential-Monitor Type:   0
    Potential-Monitor TargetI:1
    Potential-Monitor Limit:  3000
    Potential-Monitor Error:  25
    Current-DC:               0
    Current-AC:               0.1
    Current-Monitor Type:     0
    Current-Monitor TargetE:  20
    Current-Monitor Limit:    60
    Current-Monitor Error:    25
    vs Freq-Initial:          1000000
    vs Freq-Final:            0.001
    vs Freq-Lin/Log Type:     1
    vs Freq-Linear Type:      1
    vs Freq-Linear Interval:  100
    vs Freq-Log Type:         0
    vs Freq-Log Interval:     10
    Harmonics:                3
    PolE-Initial:             0
    PolE-Final:               0.2
    PolE-InitialType:         0
    PolE-FinalType:           0
    PolE-SweepRate:           1
    PolE-SweepRateType:       0
    PolE-DataRate:            5
    PolE-SegmentNo:           2
    PolE-IR:                  0
    AmplE-Initial:            10
    AmplE-Final:              200
    AmplE-SweepRate:          1
    AmplE-DataRate:           5
    AmplE-SegmentNo:          2
    PolI-Initial:             0
    PolI-Vertex:              0.01
    PolI-Final:               0.01
    PolI-SweepRate:           0.1
    PolI-SweepRateType:       0
    PolI-DataRate:            5
    PolI-SegmentNo:           2
    AmplI-Initial:            0.1
    AmplI-Final:              10
    AmplI-SweepRate:          0.1
    AmplI-DataRate:           5
    AmplI-SegmentNo:          2
    vs Time-Freq:             0.001
    vs Time-Harmonic:         1
    vs Time-Total Time:       100
    vs Time-Time Type:        0
    vs Time-Interval:         5
  End Experiment:             0
  Begin Pstat/Gstat:          1287
    Booster Type:             0
    Booster Name:             None
    Pstat Range High:         0
    Pstat Range Low:          0
    Pstat Range Frequency:    6
    Pstat Range Minimum:      0
    Pstat Limit Range:        0
    Pstat Limit Type:         1
    Pstat Bandwidth:          2
    Pstat Use Aux:            0
    Gstat Range:              0
    Gstat Bandwidth:          2
    Filter:                   1
    Error Beep:               1
    Bias Rejection:           1
    Attenuator:               2
    Grounding:                0
    Calibration File
  End Pstat/Gstat:            1287
  Begin Analyzer:             1260
    Z60 Mode:                 3
    Z60 GD Freq-:             5
    Z60 GD Freq+:             5
    Bias Voltage:             0
    Auto Integration Type:    0
    Integration Time Type:    0
    Integration Seconds:      0.2
    Integration Cycles:       1
    Delay Time Type:          1
    Delay Seconds:            0
    Delay Cycles:             0
    Source:                   2
    SourceI:                  1
    Error Beep:               0
    Range V1:                 3
    Coupling V1:              0
    Input V1:                 0
    Outer V1:                 1
    Location V1:              0
    Range V2:                 3
    Coupling V2:              0
    Input V2:                 0
    Outer V2:                 1
    Location V2:              0
    Coupling I:               0
  End Analyzer:               1260
  Begin Information:          Cell Information
    Surface Area:             1
    Density:                  0
    Weight:                   0
    Polarity:                 0
    PolarityI:                0
    Corrosion Unit Type:      0
    Reference Type:           0
    Reference Potential:      0
    User-Defined Potential:   0
    Stern-Geary:              26
  End Information:            Cell Information
  Null Configuration:         0,3,0,1,1000000,0.001
  Data Points:                73
  Freq(Hz)	Ampl	Bias	Time(Sec)	Z'(a)	Z''(b)	Aux	Err	Range
End Comments
1.000000E+06	2.0000E-02	-2.1740E-01	6.060000E+00	7.6660E+00	-5.3000E+00	0.0000E+00	0	3
7.943282E+05	2.0000E-02	-2.1740E-01	6.760000E+00	1.6380E+01	-3.4882E+00	0.0000E+00	0	3
6.309573E+05	2.0000E-02	-2.1740E-01	9.230000E+00	1.7512E+01	-3.7435E+00	0.0000E+00	0	3
5.011872E+05	2.0000E-02	-2.1740E-01	9.910000E+00	1.8611E+01	-3.8788E+00	0.0000E+00	0	3
3.981072E+05	2.0000E-02	-2.1740E-01	1.063000E+01	1.9148E+01	-4.0408E+00	0.0000E+00	0	3
3.162278E+05	2.0000E-02	-2.1740E-01	1.133000E+01	2.0142E+01	-4.3267E+00	0.0000E+00	0	3
2.511886E+05	2.0000E-02	-2.1740E-01	1.204000E+01	2.0827E+01	-4.6597E+00	0.0000E+00	0	3
1.995262E+05	2.0000E-02	-2.1740E-01	1.274000E+01	2.1582E+01	-5.1291E+00	0.0000E+00	0	3
1.584893E+05	2.0000E-02	-2.1740E-01	1.343000E+01	2.2376E+01	-5.3188E+00	0.0000E+00	0	3
1.258925E+05	2.0000E-02	-2.1740E-01	1.414000E+01	2.3230E+01	-5.8035E+00	0.0000E+00	0	3
1.000000E+05	2.0000E-02	-2.1740E-01	1.485000E+01	2.4462E+01	-6.1459E+00	0.0000E+00	0	3
7.943282E+04	2.0000E-02	-2.1740E-01	1.555000E+01	2.4730E+01	-6.3026E+00	0.0000E+00	0	3
6.309573E+04	2.0000E-02	-2.1740E-01	1.953000E+01	2.6102E+01	-5.8813E+00	0.0000E+00	0	3
5.011872E+04	2.0000E-02	-2.1740E-01	2.023000E+01	2.4388E+01	-7.4403E+00	0.0000E+00	0	3
3.981072E+04	2.0000E-02	-2.1740E-01	2.093000E+01	2.6859E+01	-7.7294E+00	0.0000E+00	0	3
3.162278E+04	2.0000E-02	-2.1740E-01	2.163000E+01	2.8912E+01	-9.0720E+00	0.0000E+00	0	3
2.511886E+04	2.0000E-02	-2.1740E-01	2.231000E+01	3.0468E+01	-9.4696E+00	0.0000E+00	0	3
1.995262E+04	2.0000E-02	-2.1740E-01	2.303000E+01	3.2136E+01	-1.0006E+01	0.0000E+00	0	3
1.584893E+04	2.0000E-02	-2.1740E-01	2.374000E+01	3.3604E+01	-1.0421E+01	0.0000E+00	0	3
1.258925E+04	2.0000E-02	-2.1740E-01	2.444000E+01	3.5551E+01	-1.0612E+01	0.0000E+00	0	3
1.000000E+04	2.0000E-02	-2.1740E-01	2.515000E+01	3.7487E+01	-1.0764E+01	0.0000E+00	0	3
7.943282E+03	2.0000E-02	-2.1740E-01	2.584000E+01	3.9386E+01	-1.0764E+01	0.0000E+00	0	3
6.309573E+03	2.0000E-02	-2.1740E-01	2.654000E+01	4.1261E+01	-1.0820E+01	0.0000E+00	0	3
5.011872E+03	2.0000E-02	-2.1740E-01	2.723000E+01	4.3123E+01	-1.0148E+01	0.0000E+00	0	3
3.981072E+03	2.0000E-02	-2.1740E-01	2.795000E+01	4.4826E+01	-9.7101E+00	0.0000E+00	0	3
3.162278E+03	2.0000E-02	-2.1740E-01	2.865000E+01	4.6472E+01	-9.1332E+00	0.0000E+00	0	3
2.511886E+03	2.0000E-02	-2.1740E-01	2.936000E+01	4.7743E+01	-8.4867E+00	0.0000E+00	0	3
1.995262E+03	2.0000E-02	-2.1740E-01	3.006000E+01	4.8879E+01	-7.8733E+00	0.0000E+00	0	3
1.584893E+03	2.0000E-02	-2.1740E-01	3.088000E+01	4.9807E+01	-7.1456E+00	0.0000E+00	0	3
1.258925E+03	2.0000E-02	-2.1740E-01	3.169000E+01	5.0358E+01	-6.5152E+00	0.0000E+00	0	3
1.000000E+03	2.0000E-02	-2.1740E-01	3.250000E+01	5.1100E+01	-6.1828E+00	0.0000E+00	0	3
7.943282E+02	2.0000E-02	-2.1740E-01	3.333000E+01	5.1706E+01	-5.7461E+00	0.0000E+00	0	3
6.309573E+02	2.0000E-02	-2.1740E-01	3.416000E+01	5.2389E+01	-5.6203E+00	0.0000E+00	0	3
5.011872E+02	2.0000E-02	-2.1740E-01	3.497000E+01	5.2665E+01	-5.7032E+00	0.0000E+00	0	3
3.981072E+02	2.0000E-02	-2.1740E-01	3.579000E+01	5.3309E+01	-5.8703E+00	0.0000E+00	0	3
3.162278E+02	2.0000E-02	-2.1740E-01	3.660000E+01	5.4051E+01	-6.1566E+00	0.0000E+00	0	3
2.511886E+02	2.0000E-02	-2.1740E-01	3.907000E+01	5.4341E+01	-6.9639E+00	0.0000E+00	0	3
1.995262E+02	2.0000E-02	-2.1740E-01	3.978000E+01	5.5156E+01	-7.6293E+00	0.0000E+00	0	3
1.584893E+02	2.0000E-02	-2.1740E-01	4.046000E+01	5.5661E+01	-7.8686E+00	0.0000E+00	0	3
1.258925E+02	2.0000E-02	-2.1740E-01	4.118000E+01	5.6245E+01	-9.4723E+00	0.0000E+00	0	3
1.000000E+02	2.0000E-02	-2.1740E-01	4.189000E+01	5.7746E+01	-1.1057E+01	0.0000E+00	0	3
7.943282E+01	2.0000E-02	-2.1740E-01	4.259000E+01	5.9226E+01	-1.2621E+01	0.0000E+00	0	3
6.309573E+01	2.0000E-02	-2.1740E-01	4.329000E+01	5.7314E+01	-1.6201E+01	0.0000E+00	0	3
5.011872E+01	2.0000E-02	-2.1740E-01	4.399000E+01	6.2866E+01	-1.7200E+01	0.0000E+00	0	3
3.981072E+01	2.0000E-02	-2.1740E-01	4.469000E+01	6.6092E+01	-1.8055E+01	0.0000E+00	0	3
3.162278E+01	2.0000E-02	-2.1740E-01	4.537000E+01	6.9735E+01	-1.9606E+01	0.0000E+00	0	3
2.511886E+01	2.0000E-02	-2.1740E-01	4.609000E+01	7.2855E+01	-2.1923E+01	0.0000E+00	0	3
1.995262E+01	2.0000E-02	-2.1740E-01	4.855000E+01	8.5981E+01	4.7953E-01	0.0000E+00	0	4
1.584893E+01	2.0000E-02	-2.1740E-01	4.936000E+01	8.1629E+01	-2.2999E+01	0.0000E+00	0	4
1.258925E+01	2.0000E-02	-2.1740E-01	5.019000E+01	8.6274E+01	-2.1898E+01	0.0000E+00	0	4
1.000000E+01	2.0000E-02	-2.1740E-01	5.090000E+01	9.0362E+01	-2.1349E+01	0.0000E+00	0	4
7.943280E+00	2.0000E-02	-2.1740E-01	5.171000E+01	9.4053E+01	-2.0183E+01	0.0000E+00	0	4
6.309570E+00	2.0000E-02	-2.1740E-01	5.277000E+01	9.7343E+01	-1.8508E+01	0.0000E+00	0	4
5.011870E+00	2.0000E-02	-2.1740E-01	5.358000E+01	1.0003E+02	-1.7179E+01	0.0000E+00	0	4
3.981070E+00	2.0000E-02	-2.1740E-01	5.452000E+01	1.0240E+02	-1.5461E+01	0.0000E+00	0	4
3.162280E+00	2.0000E-02	-2.1740E-01	5.569000E+01	1.0449E+02	-1.3584E+01	0.0000E+00	0	4
2.511890E+00	2.0000E-02	-2.1740E-01	5.675000E+01	1.0602E+02	-1.2608E+01	0.0000E+00	0	4
1.995260E+00	2.0000E-02	-2.1740E-01	5.779000E+01	1.0771E+02	-1.0734E+01	0.0000E+00	0	4
1.584890E+00	2.0000E-02	-2.1740E-01	5.896000E+01	1.0887E+02	-9.3927E+00	0.0000E+00	0	4
1.258930E+00	2.0000E-02	-2.1740E-01	6.025000E+01	1.0947E+02	-8.3290E+00	0.0000E+00	0	4
1.000000E+00	2.0000E-02	-2.1740E-01	6.177000E+01	1.1058E+02	-7.6051E+00	0.0000E+00	0	4
7.943300E-01	2.0000E-02	-2.1740E-01	6.353000E+01	1.1137E+02	-6.4894E+00	0.0000E+00	0	4
6.309600E-01	2.0000E-02	-2.1740E-01	6.599000E+01	1.1199E+02	-6.1344E+00	0.0000E+00	0	4
5.011900E-01	2.0000E-02	-2.1740E-01	6.843000E+01	1.1284E+02	-5.3889E+00	0.0000E+00	0	4
3.981100E-01	2.0000E-02	-2.1740E-01	7.148000E+01	1.1366E+02	-5.1876E+00	0.0000E+00	0	4
3.162300E-01	2.0000E-02	-2.1740E-01	7.511000E+01	1.1391E+02	-4.8140E+00	0.0000E+00	0	4
2.511900E-01	2.0000E-02	-2.1740E-01	7.968000E+01	1.1431E+02	-4.3059E+00	0.0000E+00	0	4
1.995300E-01	2.0000E-02	-2.1740E-01	8.529000E+01	1.1467E+02	-3.6011E+00	0.0000E+00	0	4
1.584900E-01	2.0000E-02	-2.1740E-01	9.221000E+01	1.1521E+02	-2.7596E+00	0.0000E+00	0	4
1.258900E-01	2.0000E-02	-2.1740E-01	1.007400E+02	1.1568E+02	-2.0100E+00	0.0000E+00	0	4
1.000000E-01	2.0000E-02	-2.1740E-01	1.118500E+02	1.1628E+02	-1.4923E+00	0.0000E+00	0	4
7.943000E-02	2.0000E-02	-2.1740E-01	1.249600E+02	1.1659E+02	-1.0445E+00	0.0000E+00	0	4
6.310000E-02	2.0000E-02	-2.1740E-01	1.413600E+02	1.1665E+02	-4.9950E-01	0.0000E+00	0	4
