ZPLOT2 ASCII
  Measured Data, ZPlot:       3.5f
  Experiment Type:            Sweep Frequency, Control Voltage
  Date:                       11-05-2019
  Time:                       15:29:05
  Open Circuit Potential (V): 0.002
  Begin User Comments:        0
  End User Comments:          0
  Begin Experiment:           0
    Potential-DC:             0.15
    Potential-DC Type:        0
    Potential-AC:             20
    Potential-Monitor Type:   0
    Potential-Monitor TargetI:1
    Potential-Monitor Limit:  3000
    Potential-Monitor Error:  25
    Current-DC:               0
    Current-AC:               0.1
    Current-Monitor Type:     0
    Current-Monitor TargetE:  20
    Current-Monitor Limit:    60
    Current-Monitor Error:    25
    vs Freq-Initial:          0.1
    vs Freq-Final:            3200000
    vs Freq-Lin/Log Type:     1
    vs Freq-Linear Type:      1
    vs Freq-Linear Interval:  100
    vs Freq-Log Type:         0
    vs Freq-Log Interval:     10
    Harmonics:                3
    PolE-Initial:             0
    PolE-Final:               0.2
    PolE-InitialType:         0
    PolE-FinalType:           0
    PolE-SweepRate:           1
    PolE-SweepRateType:       0
    PolE-DataRate:            5
    PolE-SegmentNo:           2
    PolE-IR:                  0
    AmplE-Initial:            10
    AmplE-Final:              200
    AmplE-SweepRate:          1
    AmplE-DataRate:           5
    AmplE-SegmentNo:          2
    PolI-Initial:             0
    PolI-Vertex:              0.01
    PolI-Final:               0.01
    PolI-SweepRate:           0.1
    PolI-SweepRateType:       0
    PolI-DataRate:            5
    PolI-SegmentNo:           2
    AmplI-Initial:            0.1
    AmplI-Final:              10
    AmplI-SweepRate:          0.1
    AmplI-DataRate:           5
    AmplI-SegmentNo:          2
    vs Time-Freq:             0.001
    vs Time-Harmonic:         1
    vs Time-Total Time:       100
    vs Time-Time Type:        0
    vs Time-Interval:         5
  End Experiment:             0
  Begin Pstat/Gstat:          1287
    Booster Type:             0
    Booster Name:             None
    Pstat Range High:         0
    Pstat Range Low:          0
    Pstat Range Frequency:    6
    Pstat Range Minimum:      0
    Pstat Limit Range:        0
    Pstat Limit Type:         1
    Pstat Bandwidth:          2
    Pstat Use Aux:            0
    Gstat Range:              0
    Gstat Bandwidth:          2
    Filter:                   1
    Error Beep:               1
    Bias Rejection:           1
    Attenuator:               2
    Grounding:                0
    Calibration File
  End Pstat/Gstat:            1287
  Begin Analyzer:             1260
    Z60 Mode:                 3
    Z60 GD Freq-:             5
    Z60 GD Freq+:             5
    Bias Voltage:             0
    Auto Integration Type:    0
    Integration Time Type:    0
    Integration Seconds:      0.2
    Integration Cycles:       1
    Delay Time Type:          1
    Delay Seconds:            0
    Delay Cycles:             0
    Source:                   2
    SourceI:                  1
    Error Beep:               0
    Range V1:                 3
    Coupling V1:              0
    Input V1:                 0
    Outer V1:                 1
    Location V1:              0
    Range V2:                 3
    Coupling V2:              0
    Input V2:                 0
    Outer V2:                 1
    Location V2:              0
    Coupling I:               0
  End Analyzer:               1260
  Begin Information:          Cell Information
    Surface Area:             1
    Density:                  0
    Weight:                   0
    Polarity:                 0
    PolarityI:                0
    Corrosion Unit Type:      0
    Reference Type:           0
    Reference Potential:      0
    User-Defined Potential:   0
    Stern-Geary:              26
  End Information:            Cell Information
  Null Configuration:         0,3,0,1,0.1,3200000
  Data Points:                77
  Freq(Hz)	Ampl	Bias	Time(Sec)	Z'(a)	Z''(b)	Aux	Err	Range
End Comments
1.000000E-01	2.0000E-02	1.5200E-01	3.314000E+01	2.4001E+02	-4.2652E+00	0.0000E+00	0	4
1.258900E-01	2.0000E-02	1.5200E-01	4.170000E+01	2.4130E+02	-1.7446E+01	0.0000E+00	0	4
1.584900E-01	2.0000E-02	1.5200E-01	4.849000E+01	2.3886E+02	-1.6045E+01	0.0000E+00	0	4
1.995300E-01	2.0000E-02	1.5200E-01	5.399000E+01	2.3697E+02	-1.4851E+01	0.0000E+00	0	4
2.511900E-01	2.0000E-02	1.5200E-01	5.855000E+01	2.3501E+02	-1.4070E+01	0.0000E+00	0	4
3.162300E-01	2.0000E-02	1.5200E-01	6.230000E+01	2.3296E+02	-1.3270E+01	0.0000E+00	0	4
3.981100E-01	2.0000E-02	1.5200E-01	6.532000E+01	2.3152E+02	-1.2030E+01	0.0000E+00	0	4
5.011900E-01	2.0000E-02	1.5200E-01	6.780000E+01	2.3069E+02	-1.1261E+01	0.0000E+00	0	4
6.309600E-01	2.0000E-02	1.5200E-01	6.991000E+01	2.2880E+02	-1.1041E+01	0.0000E+00	0	4
7.943300E-01	2.0000E-02	1.5200E-01	7.188000E+01	2.2801E+02	-1.0219E+01	0.0000E+00	0	4
1.000000E+00	2.0000E-02	1.5200E-01	7.341000E+01	2.2694E+02	-1.0376E+01	0.0000E+00	0	4
1.258930E+00	2.0000E-02	1.5200E-01	7.470000E+01	2.2631E+02	-1.0111E+01	0.0000E+00	0	4
1.584890E+00	2.0000E-02	1.5200E-01	7.586000E+01	2.2543E+02	-1.1047E+01	0.0000E+00	0	4
1.995260E+00	2.0000E-02	1.5200E-01	7.692000E+01	2.2433E+02	-1.2904E+01	0.0000E+00	0	4
2.511890E+00	2.0000E-02	1.5200E-01	7.798000E+01	2.2351E+02	-1.4074E+01	0.0000E+00	0	4
3.162280E+00	2.0000E-02	1.5200E-01	7.903000E+01	2.2244E+02	-1.5172E+01	0.0000E+00	0	4
3.981070E+00	2.0000E-02	1.5200E-01	7.985000E+01	2.2091E+02	-1.7677E+01	0.0000E+00	0	4
5.011870E+00	2.0000E-02	1.5200E-01	8.078000E+01	2.1883E+02	-2.0433E+01	0.0000E+00	0	4
6.309570E+00	2.0000E-02	1.5200E-01	8.160000E+01	2.1637E+02	-2.3109E+01	0.0000E+00	0	4
7.943280E+00	2.0000E-02	1.5200E-01	8.266000E+01	2.1312E+02	-2.6318E+01	0.0000E+00	0	4
1.000000E+01	2.0000E-02	1.5200E-01	8.337000E+01	2.0850E+02	-3.0748E+01	0.0000E+00	0	4
1.258925E+01	2.0000E-02	1.5200E-01	8.418000E+01	2.0300E+02	-3.3939E+01	0.0000E+00	0	4
1.584893E+01	2.0000E-02	1.5200E-01	8.501000E+01	1.9733E+02	-3.7440E+01	0.0000E+00	0	4
1.995262E+01	2.0000E-02	1.5200E-01	8.571000E+01	1.9028E+02	-4.0380E+01	0.0000E+00	0	4
2.511886E+01	2.0000E-02	1.5200E-01	8.652000E+01	1.8288E+02	-4.0619E+01	0.0000E+00	0	4
3.162278E+01	2.0000E-02	1.5200E-01	8.722000E+01	1.7492E+02	-3.8519E+01	0.0000E+00	0	4
3.981072E+01	2.0000E-02	1.5200E-01	8.793000E+01	1.6743E+02	-4.3052E+01	0.0000E+00	0	4
5.011872E+01	2.0000E-02	1.5200E-01	8.863000E+01	1.6172E+02	-3.9300E+01	0.0000E+00	0	4
6.309573E+01	2.0000E-02	1.5200E-01	8.934000E+01	1.5419E+02	-5.5796E+01	0.0000E+00	0	4
7.943282E+01	2.0000E-02	1.5200E-01	9.003000E+01	1.4784E+02	-4.0052E+01	0.0000E+00	0	4
1.000000E+02	2.0000E-02	1.5200E-01	9.074000E+01	1.4166E+02	-3.9875E+01	0.0000E+00	0	4
1.258925E+02	2.0000E-02	1.5200E-01	9.141000E+01	1.3499E+02	-4.0108E+01	0.0000E+00	0	4
1.584893E+02	2.0000E-02	1.5200E-01	9.214000E+01	1.3173E+02	-3.7504E+01	0.0000E+00	0	4
1.995262E+02	2.0000E-02	1.5200E-01	9.284000E+01	1.2351E+02	-3.8042E+01	0.0000E+00	0	4
2.511886E+02	2.0000E-02	1.5200E-01	9.354000E+01	1.1929E+02	-3.7359E+01	0.0000E+00	0	4
3.162278E+02	2.0000E-02	1.5200E-01	9.624000E+01	1.1189E+02	-3.7474E+01	0.0000E+00	0	4
3.981072E+02	2.0000E-02	1.5200E-01	9.705000E+01	1.0763E+02	-3.4844E+01	0.0000E+00	0	4
5.011872E+02	2.0000E-02	1.5200E-01	9.787000E+01	1.0221E+02	-3.3825E+01	0.0000E+00	0	4
6.309573E+02	2.0000E-02	1.5200E-01	9.869000E+01	9.6935E+01	-3.2334E+01	0.0000E+00	0	4
7.943282E+02	2.0000E-02	1.5200E-01	9.951000E+01	9.2420E+01	-3.0307E+01	0.0000E+00	0	4
1.000000E+03	2.0000E-02	1.5200E-01	1.003200E+02	8.7969E+01	-2.9409E+01	0.0000E+00	0	4
1.258925E+03	2.0000E-02	1.5200E-01	1.011300E+02	8.3257E+01	-2.8363E+01	0.0000E+00	0	4
1.584893E+03	2.0000E-02	1.5200E-01	1.019700E+02	8.0040E+01	-2.6559E+01	0.0000E+00	0	4
1.995262E+03	2.0000E-02	1.5200E-01	1.027900E+02	7.6224E+01	-2.5501E+01	0.0000E+00	0	4
2.511886E+03	2.0000E-02	1.5200E-01	1.034900E+02	7.2969E+01	-2.3992E+01	0.0000E+00	0	4
3.162278E+03	2.0000E-02	1.5200E-01	1.041900E+02	6.9816E+01	-2.3116E+01	0.0000E+00	0	4
3.981072E+03	2.0000E-02	1.5200E-01	1.048900E+02	6.6638E+01	-2.1956E+01	0.0000E+00	0	4
5.011872E+03	2.0000E-02	1.5200E-01	1.055800E+02	6.3898E+01	-2.1251E+01	0.0000E+00	0	4
6.309573E+03	2.0000E-02	1.5200E-01	1.063000E+02	6.0637E+01	-2.0502E+01	0.0000E+00	0	4
7.943282E+03	2.0000E-02	1.5200E-01	1.071200E+02	5.8468E+01	-1.9918E+01	0.0000E+00	0	4
1.000000E+04	2.0000E-02	1.5200E-01	1.078100E+02	5.5546E+01	-1.9643E+01	0.0000E+00	0	4
1.258925E+04	2.0000E-02	1.5200E-01	1.085300E+02	5.3115E+01	-1.8702E+01	0.0000E+00	0	4
1.584893E+04	2.0000E-02	1.5200E-01	1.092300E+02	5.0626E+01	-1.8644E+01	0.0000E+00	0	4
1.995262E+04	2.0000E-02	1.5200E-01	1.116800E+02	4.7303E+01	-1.8306E+01	0.0000E+00	0	3
2.511886E+04	2.0000E-02	1.5200E-01	1.123800E+02	4.4858E+01	-1.7274E+01	0.0000E+00	0	3
3.162278E+04	2.0000E-02	1.5200E-01	1.130900E+02	4.2353E+01	-1.7109E+01	0.0000E+00	0	3
3.981072E+04	2.0000E-02	1.5200E-01	1.137900E+02	3.9895E+01	-1.6669E+01	0.0000E+00	0	3
5.011872E+04	2.0000E-02	1.5200E-01	1.144900E+02	3.4088E+01	-1.5905E+01	0.0000E+00	0	3
6.309573E+04	2.0000E-02	1.5200E-01	1.152000E+02	3.5475E+01	-1.3181E+01	0.0000E+00	0	3
7.943282E+04	2.0000E-02	1.5200E-01	1.191700E+02	3.3340E+01	-1.3678E+01	0.0000E+00	0	3
1.000000E+05	2.0000E-02	1.5200E-01	1.198800E+02	3.1097E+01	-1.3274E+01	0.0000E+00	0	3
1.258925E+05	2.0000E-02	1.5200E-01	1.205700E+02	2.9213E+01	-1.3236E+01	0.0000E+00	0	3
1.584893E+05	2.0000E-02	1.5200E-01	1.212800E+02	2.7153E+01	-1.2243E+01	0.0000E+00	0	3
1.995262E+05	2.0000E-02	1.5200E-01	1.219800E+02	2.5179E+01	-1.1530E+01	0.0000E+00	0	3
2.511886E+05	2.0000E-02	1.5200E-01	1.226700E+02	2.3548E+01	-1.0398E+01	0.0000E+00	0	3
3.162278E+05	2.0000E-02	1.5200E-01	1.233700E+02	2.1889E+01	-9.5744E+00	0.0000E+00	0	3
3.981072E+05	2.0000E-02	1.5200E-01	1.240900E+02	2.0457E+01	-8.6261E+00	0.0000E+00	0	3
5.011872E+05	2.0000E-02	1.5200E-01	1.247900E+02	1.9399E+01	-7.9394E+00	0.0000E+00	0	3
6.309573E+05	2.0000E-02	1.5200E-01	1.254900E+02	1.7195E+01	-7.1786E+00	0.0000E+00	0	3
7.943282E+05	2.0000E-02	1.5200E-01	1.279500E+02	1.5919E+01	-6.0221E+00	0.0000E+00	0	3
1.000000E+06	2.0000E-02	1.5200E-01	1.286500E+02	1.4727E+01	-6.3239E+00	0.0000E+00	0	3
1.258925E+06	2.0000E-02	1.5200E-01	1.293600E+02	1.4211E+01	-7.4930E+00	0.0000E+00	0	3
1.584893E+06	2.0000E-02	1.5200E-01	1.300600E+02	1.6734E+01	-1.0138E+01	0.0000E+00	0	3
1.995262E+06	2.0000E-02	1.5200E-01	1.307600E+02	1.9664E+01	1.3734E+01	0.0000E+00	0	3
2.511887E+06	2.0000E-02	1.5200E-01	1.314600E+02	-1.6159E+01	3.2561E+01	0.0000E+00	0	3
3.162278E+06	2.0000E-02	1.5200E-01	1.321600E+02	7.6364E+01	2.5792E+01	0.0000E+00	0	3
3.200000E+06	2.0000E-02	1.5200E-01	1.328700E+02	7.3848E+01	2.3743E+01	0.0000E+00	0	3
