ZPLOT2 ASCII
  Measured Data, ZPlot:       3.5f
  Experiment Type:            Sweep Frequency, Control Voltage
  Date:                       11-05-2019
  Time:                       15:24:16
  Open Circuit Potential (V): 0.002
  Begin User Comments:        0
  End User Comments:          0
  Begin Experiment:           0
    Potential-DC:             -0.22
    Potential-DC Type:        0
    Potential-AC:             20
    Potential-Monitor Type:   0
    Potential-Monitor TargetI:1
    Potential-Monitor Limit:  3000
    Potential-Monitor Error:  25
    Current-DC:               0
    Current-AC:               0.1
    Current-Monitor Type:     0
    Current-Monitor TargetE:  20
    Current-Monitor Limit:    60
    Current-Monitor Error:    25
    vs Freq-Initial:          0.1
    vs Freq-Final:            3200000
    vs Freq-Lin/Log Type:     1
    vs Freq-Linear Type:      1
    vs Freq-Linear Interval:  100
    vs Freq-Log Type:         0
    vs Freq-Log Interval:     10
    Harmonics:                3
    PolE-Initial:             0
    PolE-Final:               0.2
    PolE-InitialType:         0
    PolE-FinalType:           0
    PolE-SweepRate:           1
    PolE-SweepRateType:       0
    PolE-DataRate:            5
    PolE-SegmentNo:           2
    PolE-IR:                  0
    AmplE-Initial:            10
    AmplE-Final:              200
    AmplE-SweepRate:          1
    AmplE-DataRate:           5
    AmplE-SegmentNo:          2
    PolI-Initial:             0
    PolI-Vertex:              0.01
    PolI-Final:               0.01
    PolI-SweepRate:           0.1
    PolI-SweepRateType:       0
    PolI-DataRate:            5
    PolI-SegmentNo:           2
    AmplI-Initial:            0.1
    AmplI-Final:              10
    AmplI-SweepRate:          0.1
    AmplI-DataRate:           5
    AmplI-SegmentNo:          2
    vs Time-Freq:             0.001
    vs Time-Harmonic:         1
    vs Time-Total Time:       100
    vs Time-Time Type:        0
    vs Time-Interval:         5
  End Experiment:             0
  Begin Pstat/Gstat:          1287
    Booster Type:             0
    Booster Name:             None
    Pstat Range High:         0
    Pstat Range Low:          0
    Pstat Range Frequency:    6
    Pstat Range Minimum:      0
    Pstat Limit Range:        0
    Pstat Limit Type:         1
    Pstat Bandwidth:          2
    Pstat Use Aux:            0
    Gstat Range:              0
    Gstat Bandwidth:          2
    Filter:                   1
    Error Beep:               1
    Bias Rejection:           1
    Attenuator:               2
    Grounding:                0
    Calibration File
  End Pstat/Gstat:            1287
  Begin Analyzer:             1260
    Z60 Mode:                 3
    Z60 GD Freq-:             5
    Z60 GD Freq+:             5
    Bias Voltage:             0
    Auto Integration Type:    0
    Integration Time Type:    0
    Integration Seconds:      0.2
    Integration Cycles:       1
    Delay Time Type:          1
    Delay Seconds:            0
    Delay Cycles:             0
    Source:                   2
    SourceI:                  1
    Error Beep:               0
    Range V1:                 3
    Coupling V1:              0
    Input V1:                 0
    Outer V1:                 1
    Location V1:              0
    Range V2:                 3
    Coupling V2:              0
    Input V2:                 0
    Outer V2:                 1
    Location V2:              0
    Coupling I:               0
  End Analyzer:               1260
  Begin Information:          Cell Information
    Surface Area:             1
    Density:                  0
    Weight:                   0
    Polarity:                 0
    PolarityI:                0
    Corrosion Unit Type:      0
    Reference Type:           0
    Reference Potential:      0
    User-Defined Potential:   0
    Stern-Geary:              26
  End Information:            Cell Information
  Null Configuration:         0,3,0,1,0.1,3200000
  Data Points:                77
  Freq(Hz)	Ampl	Bias	Time(Sec)	Z'(a)	Z''(b)	Aux	Err	Range
End Comments
1.000000E-01	2.0000E-02	-2.1800E-01	3.306000E+01	-2.6501E+04	-3.0105E+04	0.0000E+00	1	6
1.258900E-01	2.0000E-02	-2.1800E-01	6.048000E+01	1.4206E+02	-5.8268E+01	0.0000E+00	32	4
1.584900E-01	2.0000E-02	-2.1800E-01	6.727000E+01	1.4501E+02	-6.7289E+00	0.0000E+00	0	4
1.995300E-01	2.0000E-02	-2.1800E-01	7.287000E+01	1.4258E+02	-8.0984E+00	0.0000E+00	0	4
2.511900E-01	2.0000E-02	-2.1800E-01	7.732000E+01	1.4004E+02	-8.8346E+00	0.0000E+00	0	4
3.162300E-01	2.0000E-02	-2.1800E-01	8.107000E+01	1.3792E+02	-9.1192E+00	0.0000E+00	0	4
3.981100E-01	2.0000E-02	-2.1800E-01	8.409000E+01	1.3598E+02	-8.5249E+00	0.0000E+00	0	4
5.011900E-01	2.0000E-02	-2.1800E-01	8.657000E+01	1.3522E+02	-8.8273E+00	0.0000E+00	0	4
6.309600E-01	2.0000E-02	-2.1800E-01	8.868000E+01	1.3424E+02	-9.8744E+00	0.0000E+00	0	4
7.943300E-01	2.0000E-02	-2.1800E-01	9.078000E+01	1.3243E+02	-1.0597E+01	0.0000E+00	0	4
1.000000E+00	2.0000E-02	-2.1800E-01	9.230000E+01	1.3137E+02	-1.1869E+01	0.0000E+00	0	4
1.258930E+00	2.0000E-02	-2.1800E-01	9.359000E+01	1.2975E+02	-1.2386E+01	0.0000E+00	0	4
1.584890E+00	2.0000E-02	-2.1800E-01	9.476000E+01	1.2883E+02	-1.4340E+01	0.0000E+00	0	4
1.995260E+00	2.0000E-02	-2.1800E-01	9.581000E+01	1.2604E+02	-1.6248E+01	0.0000E+00	0	4
2.511890E+00	2.0000E-02	-2.1800E-01	9.687000E+01	1.2367E+02	-1.8447E+01	0.0000E+00	0	4
3.162280E+00	2.0000E-02	-2.1800E-01	9.792000E+01	1.2126E+02	-1.9613E+01	0.0000E+00	0	4
3.981070E+00	2.0000E-02	-2.1800E-01	9.873000E+01	1.1802E+02	-2.2013E+01	0.0000E+00	0	4
5.011870E+00	2.0000E-02	-2.1800E-01	9.967000E+01	1.1441E+02	-2.3992E+01	0.0000E+00	0	4
6.309570E+00	2.0000E-02	-2.1800E-01	1.004900E+02	1.1015E+02	-2.6158E+01	0.0000E+00	0	4
7.943280E+00	2.0000E-02	-2.1800E-01	1.015500E+02	1.0585E+02	-2.6975E+01	0.0000E+00	0	4
1.000000E+01	2.0000E-02	-2.1800E-01	1.022500E+02	1.0004E+02	-2.9046E+01	0.0000E+00	0	4
1.258925E+01	2.0000E-02	-2.1800E-01	1.030600E+02	9.4541E+01	-2.9133E+01	0.0000E+00	0	4
1.584893E+01	2.0000E-02	-2.1800E-01	1.038900E+02	8.8717E+01	-2.9590E+01	0.0000E+00	0	4
1.995262E+01	2.0000E-02	-2.1800E-01	1.045900E+02	8.3103E+01	-2.8489E+01	0.0000E+00	0	4
2.511886E+01	2.0000E-02	-2.1800E-01	1.052900E+02	7.8591E+01	-2.6532E+01	0.0000E+00	0	4
3.162278E+01	2.0000E-02	-2.1800E-01	1.060000E+02	7.3981E+01	-2.4347E+01	0.0000E+00	0	4
3.981072E+01	2.0000E-02	-2.1800E-01	1.066800E+02	6.9274E+01	-2.2013E+01	0.0000E+00	0	4
5.011872E+01	2.0000E-02	-2.1800E-01	1.074000E+02	6.6240E+01	-2.0645E+01	0.0000E+00	0	4
6.309573E+01	2.0000E-02	-2.1800E-01	1.081000E+02	5.9812E+01	-1.1928E+01	0.0000E+00	0	4
7.943282E+01	2.0000E-02	-2.1800E-01	1.088000E+02	6.1611E+01	-1.4858E+01	0.0000E+00	0	4
1.000000E+02	2.0000E-02	-2.1800E-01	1.095100E+02	6.0231E+01	-1.2547E+01	0.0000E+00	0	4
1.258925E+02	2.0000E-02	-2.1800E-01	1.101900E+02	5.8975E+01	-1.0588E+01	0.0000E+00	0	4
1.584893E+02	2.0000E-02	-2.1800E-01	1.109000E+02	5.7464E+01	-9.6333E+00	0.0000E+00	0	4
1.995262E+02	2.0000E-02	-2.1800E-01	1.116100E+02	5.7243E+01	-8.1427E+00	0.0000E+00	0	4
2.511886E+02	2.0000E-02	-2.1800E-01	1.123100E+02	5.6631E+01	-7.1457E+00	0.0000E+00	0	4
3.162278E+02	2.0000E-02	-2.1800E-01	1.150000E+02	5.6423E+01	-7.1259E+00	0.0000E+00	0	4
3.981072E+02	2.0000E-02	-2.1800E-01	1.158300E+02	5.5761E+01	-5.9945E+00	0.0000E+00	0	4
5.011872E+02	2.0000E-02	-2.1800E-01	1.166500E+02	5.5301E+01	-5.7406E+00	0.0000E+00	0	4
6.309573E+02	2.0000E-02	-2.1800E-01	1.174600E+02	5.4985E+01	-5.6185E+00	0.0000E+00	0	4
7.943282E+02	2.0000E-02	-2.1800E-01	1.182900E+02	5.4241E+01	-5.6416E+00	0.0000E+00	0	4
1.000000E+03	2.0000E-02	-2.1800E-01	1.191100E+02	5.3959E+01	-5.6696E+00	0.0000E+00	0	4
1.258925E+03	2.0000E-02	-2.1800E-01	1.199100E+02	5.3359E+01	-5.8107E+00	0.0000E+00	0	4
1.584893E+03	2.0000E-02	-2.1800E-01	1.207500E+02	5.2614E+01	-6.3355E+00	0.0000E+00	0	4
1.995262E+03	2.0000E-02	-2.1800E-01	1.215600E+02	5.1839E+01	-6.8047E+00	0.0000E+00	0	4
2.511886E+03	2.0000E-02	-2.1800E-01	1.222700E+02	5.0950E+01	-7.4744E+00	0.0000E+00	0	4
3.162278E+03	2.0000E-02	-2.1800E-01	1.230600E+02	4.9738E+01	-8.2130E+00	0.0000E+00	0	4
3.981072E+03	2.0000E-02	-2.1800E-01	1.237800E+02	4.8599E+01	-8.5607E+00	0.0000E+00	0	4
5.011872E+03	2.0000E-02	-2.1800E-01	1.244900E+02	4.7136E+01	-9.2201E+00	0.0000E+00	0	4
6.309573E+03	2.0000E-02	-2.1800E-01	1.251900E+02	4.5873E+01	-9.9381E+00	0.0000E+00	0	4
7.943282E+03	2.0000E-02	-2.1800E-01	1.260100E+02	4.3952E+01	-1.0315E+01	0.0000E+00	0	4
1.000000E+04	2.0000E-02	-2.1800E-01	1.267100E+02	4.2021E+01	-1.0800E+01	0.0000E+00	0	4
1.258925E+04	2.0000E-02	-2.1800E-01	1.274200E+02	4.0457E+01	-1.0883E+01	0.0000E+00	0	4
1.584893E+04	2.0000E-02	-2.1800E-01	1.281200E+02	3.8643E+01	-1.0733E+01	0.0000E+00	0	4
1.995262E+04	2.0000E-02	-2.1800E-01	1.304600E+02	3.7007E+01	-1.0275E+01	0.0000E+00	0	3
2.511886E+04	2.0000E-02	-2.1800E-01	1.311400E+02	3.5463E+01	-1.0236E+01	0.0000E+00	0	3
3.162278E+04	2.0000E-02	-2.1800E-01	1.318600E+02	3.3796E+01	-1.0023E+01	0.0000E+00	0	3
3.981072E+04	2.0000E-02	-2.1800E-01	1.325600E+02	3.2111E+01	-9.6464E+00	0.0000E+00	0	3
5.011872E+04	2.0000E-02	-2.1800E-01	1.332600E+02	2.8282E+01	-9.1748E+00	0.0000E+00	0	3
6.309573E+04	2.0000E-02	-2.1800E-01	1.339700E+02	3.0350E+01	-7.6428E+00	0.0000E+00	0	3
7.943282E+04	2.0000E-02	-2.1800E-01	1.379500E+02	2.8772E+01	-7.7655E+00	0.0000E+00	0	3
1.000000E+05	2.0000E-02	-2.1800E-01	1.386400E+02	2.7402E+01	-7.7572E+00	0.0000E+00	0	3
1.258925E+05	2.0000E-02	-2.1800E-01	1.393500E+02	2.6391E+01	-7.5141E+00	0.0000E+00	0	3
1.584893E+05	2.0000E-02	-2.1800E-01	1.400300E+02	2.5172E+01	-7.2942E+00	0.0000E+00	0	3
1.995262E+05	2.0000E-02	-2.1800E-01	1.407500E+02	2.4230E+01	-6.9645E+00	0.0000E+00	0	3
2.511886E+05	2.0000E-02	-2.1800E-01	1.414700E+02	2.3068E+01	-6.6802E+00	0.0000E+00	0	3
3.162278E+05	2.0000E-02	-2.1800E-01	1.421600E+02	2.1912E+01	-6.3051E+00	0.0000E+00	0	3
3.981072E+05	2.0000E-02	-2.1800E-01	1.428600E+02	2.1171E+01	-5.7456E+00	0.0000E+00	0	3
5.011872E+05	2.0000E-02	-2.1800E-01	1.435600E+02	1.9803E+01	-5.5205E+00	0.0000E+00	0	3
6.309573E+05	2.0000E-02	-2.1800E-01	1.442600E+02	1.8464E+01	-4.9878E+00	0.0000E+00	0	3
7.943282E+05	2.0000E-02	-2.1800E-01	1.467000E+02	1.7166E+01	-4.9616E+00	0.0000E+00	0	3
1.000000E+06	2.0000E-02	-2.1800E-01	1.474400E+02	1.5535E+01	-5.0842E+00	0.0000E+00	0	3
1.258925E+06	2.0000E-02	-2.1800E-01	1.481400E+02	1.4856E+01	-6.9359E+00	0.0000E+00	0	3
1.584893E+06	2.0000E-02	-2.1800E-01	1.488300E+02	1.7989E+01	-7.4602E+00	0.0000E+00	0	3
1.995262E+06	2.0000E-02	-2.1800E-01	1.495300E+02	1.6291E+01	8.0936E+00	0.0000E+00	0	3
2.511887E+06	2.0000E-02	-2.1800E-01	1.502400E+02	-1.7822E+01	2.2859E+01	0.0000E+00	0	3
3.162278E+06	2.0000E-02	-2.1800E-01	1.526800E+02	1.6674E+02	3.3085E+01	0.0000E+00	0	4
3.200000E+06	2.0000E-02	-2.1800E-01	1.533700E+02	1.5756E+02	3.3271E+01	0.0000E+00	0	4
