ZPLOT2 ASCII
  Measured Data, ZPlot:       3.5f
  Experiment Type:            Sweep Frequency, Control Voltage
  Date:                       11-05-2019
  Time:                       00:53:03
  Open Circuit Potential (V): 0.0022
  Begin User Comments:        0
  End User Comments:          0
  Begin Experiment:           0
    Potential-DC:             0
    Potential-DC Type:        0
    Potential-AC:             20
    Potential-Monitor Type:   0
    Potential-Monitor TargetI:1
    Potential-Monitor Limit:  3000
    Potential-Monitor Error:  25
    Current-DC:               0
    Current-AC:               0.1
    Current-Monitor Type:     0
    Current-Monitor TargetE:  20
    Current-Monitor Limit:    60
    Current-Monitor Error:    25
    vs Freq-Initial:          3200000
    vs Freq-Final:            1
    vs Freq-Lin/Log Type:     1
    vs Freq-Linear Type:      1
    vs Freq-Linear Interval:  100
    vs Freq-Log Type:         0
    vs Freq-Log Interval:     10
    Harmonics:                3
    PolE-Initial:             0
    PolE-Final:               0.2
    PolE-InitialType:         0
    PolE-FinalType:           0
    PolE-SweepRate:           1
    PolE-SweepRateType:       0
    PolE-DataRate:            5
    PolE-SegmentNo:           2
    PolE-IR:                  0
    AmplE-Initial:            10
    AmplE-Final:              200
    AmplE-SweepRate:          1
    AmplE-DataRate:           5
    AmplE-SegmentNo:          2
    PolI-Initial:             0
    PolI-Vertex:              0.01
    PolI-Final:               0.01
    PolI-SweepRate:           0.1
    PolI-SweepRateType:       0
    PolI-DataRate:            5
    PolI-SegmentNo:           2
    AmplI-Initial:            0.1
    AmplI-Final:              10
    AmplI-SweepRate:          0.1
    AmplI-DataRate:           5
    AmplI-SegmentNo:          2
    vs Time-Freq:             0.001
    vs Time-Harmonic:         1
    vs Time-Total Time:       100
    vs Time-Time Type:        0
    vs Time-Interval:         5
  End Experiment:             0
  Begin Pstat/Gstat:          1287
    Booster Type:             0
    Booster Name:             None
    Pstat Range High:         0
    Pstat Range Low:          0
    Pstat Range Frequency:    6
    Pstat Range Minimum:      0
    Pstat Limit Range:        0
    Pstat Limit Type:         1
    Pstat Bandwidth:          2
    Pstat Use Aux:            0
    Gstat Range:              0
    Gstat Bandwidth:          2
    Filter:                   1
    Error Beep:               1
    Bias Rejection:           1
    Attenuator:               2
    Grounding:                0
    Calibration File
  End Pstat/Gstat:            1287
  Begin Analyzer:             1260
    Z60 Mode:                 3
    Z60 GD Freq-:             5
    Z60 GD Freq+:             5
    Bias Voltage:             0
    Auto Integration Type:    0
    Integration Time Type:    0
    Integration Seconds:      0.2
    Integration Cycles:       1
    Delay Time Type:          1
    Delay Seconds:            0
    Delay Cycles:             0
    Source:                   2
    SourceI:                  1
    Error Beep:               0
    Range V1:                 3
    Coupling V1:              0
    Input V1:                 0
    Outer V1:                 1
    Location V1:              0
    Range V2:                 3
    Coupling V2:              0
    Input V2:                 0
    Outer V2:                 1
    Location V2:              0
    Coupling I:               0
  End Analyzer:               1260
  Begin Information:          Cell Information
    Surface Area:             1
    Density:                  0
    Weight:                   0
    Polarity:                 0
    PolarityI:                0
    Corrosion Unit Type:      0
    Reference Type:           0
    Reference Potential:      0
    User-Defined Potential:   0
    Stern-Geary:              26
  End Information:            Cell Information
  Null Configuration:         0,3,0,1,3200000,1
  Data Points:                67
  Freq(Hz)	Ampl	Bias	Time(Sec)	Z'(a)	Z''(b)	Aux	Err	Range
End Comments
3.200000E+06	2.0000E-02	2.2000E-03	6.070000E+00	4.9688E+00	5.2622E+02	0.0000E+00	1	5
2.541851E+06	2.0000E-02	2.2000E-03	1.029000E+01	-2.6831E+01	4.0962E+01	0.0000E+00	0	3
2.019064E+06	2.0000E-02	2.2000E-03	1.099000E+01	1.1646E+01	1.5078E+01	0.0000E+00	0	3
1.603799E+06	2.0000E-02	2.2000E-03	1.169000E+01	1.7463E+01	-3.1151E+00	0.0000E+00	0	3
1.273943E+06	2.0000E-02	2.2000E-03	1.239000E+01	1.4626E+01	-5.9746E+00	0.0000E+00	0	3
1.011929E+06	2.0000E-02	2.2000E-03	1.309000E+01	1.5752E+01	-3.9728E+00	0.0000E+00	0	3
8.038037E+05	2.0000E-02	2.2000E-03	1.380000E+01	1.6436E+01	-3.8056E+00	0.0000E+00	0	3
6.384839E+05	2.0000E-02	2.2000E-03	1.622000E+01	1.7321E+01	-4.5198E+00	0.0000E+00	0	3
5.071658E+05	2.0000E-02	2.2000E-03	1.695000E+01	1.8405E+01	-5.2055E+00	0.0000E+00	0	3
4.028561E+05	2.0000E-02	2.2000E-03	1.765000E+01	1.9604E+01	-5.8532E+00	0.0000E+00	0	3
3.200000E+05	2.0000E-02	2.2000E-03	1.836000E+01	2.0570E+01	-6.6679E+00	0.0000E+00	0	3
2.541850E+05	2.0000E-02	2.2000E-03	1.906000E+01	2.1608E+01	-7.3730E+00	0.0000E+00	0	3
2.019063E+05	2.0000E-02	2.2000E-03	1.976000E+01	2.2705E+01	-8.2071E+00	0.0000E+00	0	3
1.603799E+05	2.0000E-02	2.2000E-03	2.046000E+01	2.4038E+01	-8.9950E+00	0.0000E+00	0	3
1.273943E+05	2.0000E-02	2.2000E-03	2.116000E+01	2.5352E+01	-9.7045E+00	0.0000E+00	0	3
1.011929E+05	2.0000E-02	2.2000E-03	2.186000E+01	2.7066E+01	-1.0264E+01	0.0000E+00	0	3
8.038037E+04	2.0000E-02	2.2000E-03	2.257000E+01	2.8529E+01	-1.1023E+01	0.0000E+00	0	3
6.384839E+04	2.0000E-02	2.2000E-03	2.656000E+01	2.9750E+01	-1.1200E+01	0.0000E+00	0	3
5.071658E+04	2.0000E-02	2.2000E-03	2.726000E+01	2.9453E+01	-1.1715E+01	0.0000E+00	0	3
4.028561E+04	2.0000E-02	2.2000E-03	2.796000E+01	3.4031E+01	-1.4393E+01	0.0000E+00	0	3
3.200000E+04	2.0000E-02	2.2000E-03	2.865000E+01	3.6328E+01	-1.4664E+01	0.0000E+00	0	3
2.541850E+04	2.0000E-02	2.2000E-03	2.936000E+01	3.8538E+01	-1.5033E+01	0.0000E+00	0	3
2.019063E+04	2.0000E-02	2.2000E-03	3.007000E+01	4.1044E+01	-1.5627E+01	0.0000E+00	0	3
1.603799E+04	2.0000E-02	2.2000E-03	3.077000E+01	4.3141E+01	-1.5916E+01	0.0000E+00	0	3
1.273943E+04	2.0000E-02	2.2000E-03	3.147000E+01	4.5924E+01	-1.6181E+01	0.0000E+00	0	3
1.011929E+04	2.0000E-02	2.2000E-03	3.216000E+01	4.8770E+01	-1.6736E+01	0.0000E+00	0	3
8.038037E+03	2.0000E-02	2.2000E-03	3.287000E+01	5.0944E+01	-1.6444E+01	0.0000E+00	0	3
6.384839E+03	2.0000E-02	2.2000E-03	3.358000E+01	5.3801E+01	-1.6689E+01	0.0000E+00	0	3
5.071658E+03	2.0000E-02	2.2000E-03	3.428000E+01	5.6205E+01	-1.6804E+01	0.0000E+00	0	3
4.028561E+03	2.0000E-02	2.2000E-03	3.498000E+01	5.8652E+01	-1.7008E+01	0.0000E+00	0	3
3.200000E+03	2.0000E-02	2.2000E-03	3.569000E+01	6.1407E+01	-1.7179E+01	0.0000E+00	0	3
2.541850E+03	2.0000E-02	2.2000E-03	3.639000E+01	6.3295E+01	-1.7138E+01	0.0000E+00	0	3
2.019063E+03	2.0000E-02	2.2000E-03	3.720000E+01	6.5923E+01	-1.7295E+01	0.0000E+00	0	3
1.603799E+03	2.0000E-02	2.2000E-03	3.790000E+01	6.8131E+01	-1.7466E+01	0.0000E+00	0	3
1.273943E+03	2.0000E-02	2.2000E-03	3.872000E+01	7.0689E+01	-1.7888E+01	0.0000E+00	0	3
1.011929E+03	2.0000E-02	2.2000E-03	3.954000E+01	7.2826E+01	-1.8122E+01	0.0000E+00	0	3
8.038037E+02	2.0000E-02	2.2000E-03	4.037000E+01	7.5241E+01	-1.8177E+01	0.0000E+00	0	3
6.384839E+02	2.0000E-02	2.2000E-03	4.294000E+01	7.7505E+01	-1.9069E+01	0.0000E+00	0	4
5.071658E+02	2.0000E-02	2.2000E-03	4.374000E+01	7.9712E+01	-1.9774E+01	0.0000E+00	0	4
4.028561E+02	2.0000E-02	2.2000E-03	4.456000E+01	8.1542E+01	-2.0982E+01	0.0000E+00	0	4
3.200000E+02	2.0000E-02	2.2000E-03	4.539000E+01	8.4383E+01	-2.0752E+01	0.0000E+00	0	4
2.541850E+02	2.0000E-02	2.2000E-03	4.785000E+01	8.4681E+01	-2.4938E+01	0.0000E+00	0	4
2.019064E+02	2.0000E-02	2.2000E-03	4.853000E+01	8.6172E+01	-2.7559E+01	0.0000E+00	0	4
1.603799E+02	2.0000E-02	2.2000E-03	4.926000E+01	8.7798E+01	-3.2676E+01	0.0000E+00	0	4
1.273943E+02	2.0000E-02	2.2000E-03	4.994000E+01	8.9799E+01	-3.8031E+01	0.0000E+00	0	4
1.011929E+02	2.0000E-02	2.2000E-03	5.066000E+01	9.2101E+01	-4.5573E+01	0.0000E+00	0	4
8.038037E+01	2.0000E-02	2.2000E-03	5.135000E+01	9.6039E+01	-5.4271E+01	0.0000E+00	0	4
6.384839E+01	2.0000E-02	2.2000E-03	5.206000E+01	1.0203E+02	-7.0540E+01	0.0000E+00	0	4
5.071658E+01	2.0000E-02	2.2000E-03	5.276000E+01	1.0663E+02	-7.9694E+01	0.0000E+00	0	4
4.028561E+01	2.0000E-02	2.2000E-03	5.347000E+01	1.1712E+02	-9.6394E+01	0.0000E+00	0	4
3.200000E+01	2.0000E-02	2.2000E-03	5.417000E+01	1.2771E+02	-1.1245E+02	0.0000E+00	0	4
2.541850E+01	2.0000E-02	2.2000E-03	5.486000E+01	1.4278E+02	-1.3294E+02	0.0000E+00	0	4
2.019063E+01	2.0000E-02	2.2000E-03	5.558000E+01	1.6516E+02	-1.5308E+02	0.0000E+00	0	4
1.603799E+01	2.0000E-02	2.2000E-03	5.639000E+01	1.9212E+02	-1.7324E+02	0.0000E+00	0	4
1.273943E+01	2.0000E-02	2.2000E-03	5.721000E+01	2.2163E+02	-1.9228E+02	0.0000E+00	0	4
1.011929E+01	2.0000E-02	2.2000E-03	5.804000E+01	2.5668E+02	-2.0815E+02	0.0000E+00	0	4
8.038040E+00	2.0000E-02	2.2000E-03	5.885000E+01	2.9783E+02	-2.1883E+02	0.0000E+00	0	4
6.384840E+00	2.0000E-02	2.2000E-03	5.977000E+01	3.3869E+02	-2.2591E+02	0.0000E+00	0	4
5.071660E+00	2.0000E-02	2.2000E-03	6.071000E+01	3.8117E+02	-2.2713E+02	0.0000E+00	0	4
4.028560E+00	2.0000E-02	2.2000E-03	6.154000E+01	4.1531E+02	-2.2834E+02	0.0000E+00	0	4
3.200000E+00	2.0000E-02	2.2000E-03	6.247000E+01	4.5668E+02	-2.2126E+02	0.0000E+00	0	4
2.541850E+00	2.0000E-02	2.2000E-03	6.353000E+01	4.9919E+02	-2.0604E+02	0.0000E+00	0	4
2.019060E+00	2.0000E-02	2.2000E-03	6.483000E+01	5.2502E+02	-2.0480E+02	0.0000E+00	0	4
1.603800E+00	2.0000E-02	2.2000E-03	6.599000E+01	5.5610E+02	-1.9850E+02	0.0000E+00	0	4
1.273940E+00	2.0000E-02	2.2000E-03	6.728000E+01	5.8510E+02	-1.8119E+02	0.0000E+00	0	4
1.011930E+00	2.0000E-02	2.2000E-03	6.880000E+01	6.1377E+02	-1.7335E+02	0.0000E+00	0	4
1.000000E+00	2.0000E-02	2.2000E-03	7.031000E+01	6.1278E+02	-1.7406E+02	0.0000E+00	0	4
