ZPLOT2 ASCII
  Measured Data, ZPlot:       3.5f
  Experiment Type:            Sweep Frequency, Control Voltage
  Date:                       11-05-2019
  Time:                       15:11:20
  Open Circuit Potential (V): 0.0022
  Begin User Comments:        0
  End User Comments:          0
  Begin Experiment:           0
    Potential-DC:             0
    Potential-DC Type:        1
    Potential-AC:             20
    Potential-Monitor Type:   0
    Potential-Monitor TargetI:1
    Potential-Monitor Limit:  3000
    Potential-Monitor Error:  25
    Current-DC:               0
    Current-AC:               0.1
    Current-Monitor Type:     0
    Current-Monitor TargetE:  20
    Current-Monitor Limit:    60
    Current-Monitor Error:    25
    vs Freq-Initial:          0.12589
    vs Freq-Final:            1000000
    vs Freq-Lin/Log Type:     1
    vs Freq-Linear Type:      1
    vs Freq-Linear Interval:  100
    vs Freq-Log Type:         0
    vs Freq-Log Interval:     10
    Harmonics:                3
    PolE-Initial:             0
    PolE-Final:               0.2
    PolE-InitialType:         0
    PolE-FinalType:           0
    PolE-SweepRate:           1
    PolE-SweepRateType:       0
    PolE-DataRate:            5
    PolE-SegmentNo:           2
    PolE-IR:                  0
    AmplE-Initial:            10
    AmplE-Final:              200
    AmplE-SweepRate:          1
    AmplE-DataRate:           5
    AmplE-SegmentNo:          2
    PolI-Initial:             0
    PolI-Vertex:              0.01
    PolI-Final:               0.01
    PolI-SweepRate:           0.1
    PolI-SweepRateType:       0
    PolI-DataRate:            5
    PolI-SegmentNo:           2
    AmplI-Initial:            0.1
    AmplI-Final:              10
    AmplI-SweepRate:          0.1
    AmplI-DataRate:           5
    AmplI-SegmentNo:          2
    vs Time-Freq:             0.001
    vs Time-Harmonic:         1
    vs Time-Total Time:       100
    vs Time-Time Type:        0
    vs Time-Interval:         5
  End Experiment:             0
  Begin Pstat/Gstat:          1287
    Booster Type:             0
    Booster Name:             None
    Pstat Range High:         0
    Pstat Range Low:          0
    Pstat Range Frequency:    6
    Pstat Range Minimum:      0
    Pstat Limit Range:        0
    Pstat Limit Type:         1
    Pstat Bandwidth:          2
    Pstat Use Aux:            0
    Gstat Range:              0
    Gstat Bandwidth:          2
    Filter:                   1
    Error Beep:               1
    Bias Rejection:           1
    Attenuator:               2
    Grounding:                0
    Calibration File
  End Pstat/Gstat:            1287
  Begin Analyzer:             1260
    Z60 Mode:                 3
    Z60 GD Freq-:             5
    Z60 GD Freq+:             5
    Bias Voltage:             0
    Auto Integration Type:    0
    Integration Time Type:    0
    Integration Seconds:      0.2
    Integration Cycles:       1
    Delay Time Type:          1
    Delay Seconds:            0
    Delay Cycles:             0
    Source:                   2
    SourceI:                  1
    Error Beep:               0
    Range V1:                 3
    Coupling V1:              0
    Input V1:                 0
    Outer V1:                 1
    Location V1:              0
    Range V2:                 3
    Coupling V2:              0
    Input V2:                 0
    Outer V2:                 1
    Location V2:              0
    Coupling I:               0
  End Analyzer:               1260
  Begin Information:          Cell Information
    Surface Area:             1
    Density:                  0
    Weight:                   0
    Polarity:                 0
    PolarityI:                0
    Corrosion Unit Type:      0
    Reference Type:           0
    Reference Potential:      0
    User-Defined Potential:   0
    Stern-Geary:              26
  End Information:            Cell Information
  Null Configuration:         0,3,0,1,0.12589,1000000
  Data Points:                70
  Freq(Hz)	Ampl	Bias	Time(Sec)	Z'(a)	Z''(b)	Aux	Err	Range
End Comments
1.258900E-01	2.0000E-02	0.0000E+00	2.693000E+01	1.0421E+03	-2.4091E+02	0.0000E+00	1	5
1.584900E-01	2.0000E-02	0.0000E+00	3.382000E+01	1.0849E+03	-2.3622E+02	0.0000E+00	1	5
1.995200E-01	2.0000E-02	0.0000E+00	3.944000E+01	1.0485E+03	-2.4469E+02	0.0000E+00	1	5
2.511800E-01	2.0000E-02	0.0000E+00	4.399000E+01	1.0101E+03	-2.4564E+02	0.0000E+00	33	5
3.162200E-01	2.0000E-02	0.0000E+00	4.775000E+01	9.7789E+02	-2.5159E+02	0.0000E+00	1	5
3.981000E-01	2.0000E-02	0.0000E+00	5.079000E+01	9.4252E+02	-2.6465E+02	0.0000E+00	33	5
5.011800E-01	2.0000E-02	0.0000E+00	5.336000E+01	8.9910E+02	-2.6761E+02	0.0000E+00	1	5
6.309400E-01	2.0000E-02	0.0000E+00	5.545000E+01	8.6262E+02	-2.7803E+02	0.0000E+00	1	5
7.943100E-01	2.0000E-02	0.0000E+00	5.841000E+01	8.2209E+02	-2.8377E+02	0.0000E+00	1	5
9.999800E-01	2.0000E-02	0.0000E+00	5.990000E+01	7.7541E+02	-2.9396E+02	0.0000E+00	1	5
1.258900E+00	2.0000E-02	0.0000E+00	6.121000E+01	7.3546E+02	-2.9671E+02	0.0000E+00	1	5
1.584860E+00	2.0000E-02	0.0000E+00	6.239000E+01	6.8362E+02	-3.0647E+02	0.0000E+00	1	5
1.995220E+00	2.0000E-02	0.0000E+00	6.342000E+01	6.3902E+02	-3.1178E+02	0.0000E+00	1	5
2.511840E+00	2.0000E-02	0.0000E+00	6.449000E+01	5.8885E+02	-3.1891E+02	0.0000E+00	1	5
3.162210E+00	2.0000E-02	0.0000E+00	6.553000E+01	5.2952E+02	-3.2272E+02	0.0000E+00	1	5
3.980990E+00	2.0000E-02	0.0000E+00	6.636000E+01	4.7173E+02	-3.2171E+02	0.0000E+00	1	5
5.011770E+00	2.0000E-02	0.0000E+00	6.730000E+01	4.2215E+02	-3.1042E+02	0.0000E+00	1	5
6.309450E+00	2.0000E-02	0.0000E+00	6.823000E+01	3.6639E+02	-2.9841E+02	0.0000E+00	1	5
7.943120E+00	2.0000E-02	0.0000E+00	6.917000E+01	3.1114E+02	-2.8036E+02	0.0000E+00	33	5
9.999800E+00	2.0000E-02	0.0000E+00	7.175000E+01	2.6575E+02	-2.5617E+02	0.0000E+00	0	4
1.258900E+01	2.0000E-02	0.0000E+00	7.256000E+01	2.2618E+02	-2.3101E+02	0.0000E+00	0	4
1.584861E+01	2.0000E-02	0.0000E+00	7.338000E+01	1.9326E+02	-2.0352E+02	0.0000E+00	0	4
1.995222E+01	2.0000E-02	0.0000E+00	7.408000E+01	1.6611E+02	-1.7611E+02	0.0000E+00	0	4
2.511836E+01	2.0000E-02	0.0000E+00	7.489000E+01	1.4684E+02	-1.5063E+02	0.0000E+00	0	4
3.162214E+01	2.0000E-02	0.0000E+00	7.560000E+01	1.3135E+02	-1.2602E+02	0.0000E+00	0	4
3.980991E+01	2.0000E-02	0.0000E+00	7.629000E+01	1.1729E+02	-1.0559E+02	0.0000E+00	0	4
5.011771E+01	2.0000E-02	0.0000E+00	7.700000E+01	1.0876E+02	-8.7903E+01	0.0000E+00	0	4
6.309446E+01	2.0000E-02	0.0000E+00	7.769000E+01	1.0022E+02	-7.1608E+01	0.0000E+00	0	4
7.943122E+01	2.0000E-02	0.0000E+00	7.840000E+01	9.8507E+01	-5.9612E+01	0.0000E+00	0	4
9.999798E+01	2.0000E-02	0.0000E+00	7.911000E+01	9.4796E+01	-4.9286E+01	0.0000E+00	0	4
1.258900E+02	2.0000E-02	0.0000E+00	7.981000E+01	9.2395E+01	-4.1108E+01	0.0000E+00	0	4
1.584861E+02	2.0000E-02	0.0000E+00	8.053000E+01	9.1617E+01	-3.4762E+01	0.0000E+00	0	4
1.995222E+02	2.0000E-02	0.0000E+00	8.121000E+01	8.9191E+01	-2.9412E+01	0.0000E+00	0	4
2.511836E+02	2.0000E-02	0.0000E+00	8.193000E+01	8.7804E+01	-2.5379E+01	0.0000E+00	0	4
3.162214E+02	2.0000E-02	0.0000E+00	8.461000E+01	8.6411E+01	-2.3349E+01	0.0000E+00	0	4
3.980991E+02	2.0000E-02	0.0000E+00	8.544000E+01	8.4602E+01	-2.0670E+01	0.0000E+00	0	4
5.011771E+02	2.0000E-02	0.0000E+00	8.625000E+01	8.3038E+01	-1.9215E+01	0.0000E+00	0	4
6.309446E+02	2.0000E-02	0.0000E+00	8.708000E+01	8.1566E+01	-1.8117E+01	0.0000E+00	0	4
7.943122E+02	2.0000E-02	0.0000E+00	8.789000E+01	7.9561E+01	-1.7381E+01	0.0000E+00	0	4
9.999798E+02	2.0000E-02	0.0000E+00	8.871000E+01	7.7274E+01	-1.6760E+01	0.0000E+00	0	4
1.258900E+03	2.0000E-02	0.0000E+00	8.953000E+01	7.4998E+01	-1.6143E+01	0.0000E+00	0	4
1.584861E+03	2.0000E-02	0.0000E+00	9.035000E+01	7.3327E+01	-1.5702E+01	0.0000E+00	0	4
1.995222E+03	2.0000E-02	0.0000E+00	9.106000E+01	7.1247E+01	-1.5314E+01	0.0000E+00	0	4
2.511836E+03	2.0000E-02	0.0000E+00	9.185000E+01	6.9356E+01	-1.5120E+01	0.0000E+00	0	4
3.162214E+03	2.0000E-02	0.0000E+00	9.258000E+01	6.7417E+01	-1.4961E+01	0.0000E+00	0	4
3.980991E+03	2.0000E-02	0.0000E+00	9.328000E+01	6.5360E+01	-1.4870E+01	0.0000E+00	0	4
5.011771E+03	2.0000E-02	0.0000E+00	9.398000E+01	6.3370E+01	-1.4977E+01	0.0000E+00	0	4
6.309446E+03	2.0000E-02	0.0000E+00	9.467000E+01	6.1268E+01	-1.4919E+01	0.0000E+00	0	4
7.943122E+03	2.0000E-02	0.0000E+00	9.550000E+01	5.9002E+01	-1.5261E+01	0.0000E+00	0	4
9.999798E+03	2.0000E-02	0.0000E+00	9.621000E+01	5.6765E+01	-1.5400E+01	0.0000E+00	0	4
1.258900E+04	2.0000E-02	0.0000E+00	9.690000E+01	5.4794E+01	-1.5825E+01	0.0000E+00	0	4
1.584861E+04	2.0000E-02	0.0000E+00	9.759000E+01	5.2448E+01	-1.6004E+01	0.0000E+00	0	4
1.995222E+04	2.0000E-02	0.0000E+00	9.831000E+01	4.9925E+01	-1.6323E+01	0.0000E+00	0	4
2.511836E+04	2.0000E-02	0.0000E+00	9.901000E+01	4.7142E+01	-1.6608E+01	0.0000E+00	0	4
3.162214E+04	2.0000E-02	0.0000E+00	9.971000E+01	4.4315E+01	-1.7083E+01	0.0000E+00	0	4
3.980991E+04	2.0000E-02	0.0000E+00	1.004200E+02	4.1403E+01	-1.7886E+01	0.0000E+00	0	4
5.011771E+04	2.0000E-02	0.0000E+00	1.027600E+02	3.5298E+01	-1.3957E+01	0.0000E+00	0	3
6.309446E+04	2.0000E-02	0.0000E+00	1.034400E+02	3.7633E+01	-1.4215E+01	0.0000E+00	0	3
7.943122E+04	2.0000E-02	0.0000E+00	1.074200E+02	3.5991E+01	-1.3924E+01	0.0000E+00	0	3
9.999798E+04	2.0000E-02	0.0000E+00	1.081400E+02	3.4286E+01	-1.2626E+01	0.0000E+00	1	3
1.258900E+05	2.0000E-02	0.0000E+00	1.088400E+02	3.1399E+01	-1.2627E+01	0.0000E+00	0	3
1.584861E+05	2.0000E-02	0.0000E+00	1.095500E+02	2.9291E+01	-1.2134E+01	0.0000E+00	0	3
1.995222E+05	2.0000E-02	0.0000E+00	1.102500E+02	2.7440E+01	-1.1451E+01	0.0000E+00	0	3
2.511836E+05	2.0000E-02	0.0000E+00	1.109500E+02	2.5717E+01	-1.0276E+01	0.0000E+00	0	3
3.162214E+05	2.0000E-02	0.0000E+00	1.116500E+02	2.4231E+01	-9.5723E+00	0.0000E+00	0	3
3.980991E+05	2.0000E-02	0.0000E+00	1.123400E+02	2.2473E+01	-8.4905E+00	0.0000E+00	0	3
5.011771E+05	2.0000E-02	0.0000E+00	1.130500E+02	2.0521E+01	-8.0057E+00	0.0000E+00	0	3
6.309446E+05	2.0000E-02	0.0000E+00	1.137500E+02	1.9099E+01	-7.0775E+00	0.0000E+00	0	3
7.943122E+05	2.0000E-02	0.0000E+00	1.162200E+02	1.7939E+01	-6.0040E+00	0.0000E+00	0	3
1.000000E+06	2.0000E-02	0.0000E+00	1.169200E+02	1.6538E+01	-6.3097E+00	0.0000E+00	0	3
