ZPLOT2 ASCII
  Measured Data, ZPlot:       3.5f
  Experiment Type:            Sweep Frequency, Control Voltage
  Date:                       11-05-2019
  Time:                       00:41:15
  Open Circuit Potential (V): 0.002
  Begin User Comments:        0
  End User Comments:          0
  Begin Experiment:           0
    Potential-DC:             0
    Potential-DC Type:        0
    Potential-AC:             20
    Potential-Monitor Type:   0
    Potential-Monitor TargetI:1
    Potential-Monitor Limit:  3000
    Potential-Monitor Error:  25
    Current-DC:               0
    Current-AC:               0.1
    Current-Monitor Type:     0
    Current-Monitor TargetE:  20
    Current-Monitor Limit:    60
    Current-Monitor Error:    25
    vs Freq-Initial:          3200000
    vs Freq-Final:            1
    vs Freq-Lin/Log Type:     1
    vs Freq-Linear Type:      1
    vs Freq-Linear Interval:  100
    vs Freq-Log Type:         0
    vs Freq-Log Interval:     10
    Harmonics:                3
    PolE-Initial:             0
    PolE-Final:               0.2
    PolE-InitialType:         0
    PolE-FinalType:           0
    PolE-SweepRate:           1
    PolE-SweepRateType:       0
    PolE-DataRate:            5
    PolE-SegmentNo:           2
    PolE-IR:                  0
    AmplE-Initial:            10
    AmplE-Final:              200
    AmplE-SweepRate:          1
    AmplE-DataRate:           5
    AmplE-SegmentNo:          2
    PolI-Initial:             0
    PolI-Vertex:              0.01
    PolI-Final:               0.01
    PolI-SweepRate:           0.1
    PolI-SweepRateType:       0
    PolI-DataRate:            5
    PolI-SegmentNo:           2
    AmplI-Initial:            0.1
    AmplI-Final:              10
    AmplI-SweepRate:          0.1
    AmplI-DataRate:           5
    AmplI-SegmentNo:          2
    vs Time-Freq:             0.001
    vs Time-Harmonic:         1
    vs Time-Total Time:       100
    vs Time-Time Type:        0
    vs Time-Interval:         5
  End Experiment:             0
  Begin Pstat/Gstat:          1287
    Booster Type:             0
    Booster Name:             None
    Pstat Range High:         0
    Pstat Range Low:          0
    Pstat Range Frequency:    6
    Pstat Range Minimum:      0
    Pstat Limit Range:        0
    Pstat Limit Type:         1
    Pstat Bandwidth:          2
    Pstat Use Aux:            0
    Gstat Range:              0
    Gstat Bandwidth:          2
    Filter:                   1
    Error Beep:               1
    Bias Rejection:           1
    Attenuator:               2
    Grounding:                0
    Calibration File
  End Pstat/Gstat:            1287
  Begin Analyzer:             1260
    Z60 Mode:                 3
    Z60 GD Freq-:             5
    Z60 GD Freq+:             5
    Bias Voltage:             0
    Auto Integration Type:    0
    Integration Time Type:    0
    Integration Seconds:      0.2
    Integration Cycles:       1
    Delay Time Type:          1
    Delay Seconds:            0
    Delay Cycles:             0
    Source:                   2
    SourceI:                  1
    Error Beep:               0
    Range V1:                 0
    Coupling V1:              0
    Input V1:                 0
    Outer V1:                 1
    Location V1:              0
    Range V2:                 0
    Coupling V2:              0
    Input V2:                 0
    Outer V2:                 1
    Location V2:              0
    Coupling I:               0
  End Analyzer:               1260
  Begin Information:          Cell Information
    Surface Area:             1
    Density:                  0
    Weight:                   0
    Polarity:                 0
    PolarityI:                0
    Corrosion Unit Type:      0
    Reference Type:           0
    Reference Potential:      0
    User-Defined Potential:   0
    Stern-Geary:              26
  End Information:            Cell Information
  Null Configuration:         0,3,0,1,3200000,1
  Data Points:                67
  Freq(Hz)	Ampl	Bias	Time(Sec)	Z'(a)	Z''(b)	Aux	Err	Range
End Comments
3.200000E+06	2.0000E-02	2.0000E-03	6.460000E+00	1.1763E+02	6.5893E+01	0.0000E+00	0	4
2.541851E+06	2.0000E-02	2.0000E-03	7.170000E+00	2.7067E+01	2.3822E+02	0.0000E+00	0	4
2.019064E+06	2.0000E-02	2.0000E-03	9.630000E+00	1.2452E+01	2.2240E+01	0.0000E+00	0	3
1.603799E+06	2.0000E-02	2.0000E-03	1.034000E+01	1.8732E+01	-5.4780E+00	0.0000E+00	0	3
1.273943E+06	2.0000E-02	2.0000E-03	1.103000E+01	1.5038E+01	-9.2143E+00	0.0000E+00	0	3
1.011929E+06	2.0000E-02	2.0000E-03	1.173000E+01	1.8163E+01	-6.1149E+00	0.0000E+00	0	3
8.038037E+05	2.0000E-02	2.0000E-03	1.244000E+01	1.8736E+01	-5.0007E+00	0.0000E+00	0	3
6.384839E+05	2.0000E-02	2.0000E-03	1.489000E+01	1.9913E+01	-5.2564E+00	0.0000E+00	0	3
5.071658E+05	2.0000E-02	2.0000E-03	1.561000E+01	2.1011E+01	-5.8634E+00	0.0000E+00	0	3
4.028561E+05	2.0000E-02	2.0000E-03	1.631000E+01	2.1774E+01	-5.7554E+00	0.0000E+00	0	3
3.200000E+05	2.0000E-02	2.0000E-03	1.702000E+01	2.2481E+01	-6.2341E+00	0.0000E+00	0	3
2.541850E+05	2.0000E-02	2.0000E-03	1.772000E+01	2.3401E+01	-6.8055E+00	0.0000E+00	0	3
2.019063E+05	2.0000E-02	2.0000E-03	1.853000E+01	2.4228E+01	-7.5505E+00	0.0000E+00	0	3
1.603799E+05	2.0000E-02	2.0000E-03	1.935000E+01	2.5284E+01	-8.1862E+00	0.0000E+00	0	3
1.273943E+05	2.0000E-02	2.0000E-03	2.016000E+01	2.6305E+01	-9.0559E+00	0.0000E+00	0	3
1.011929E+05	2.0000E-02	2.0000E-03	2.099000E+01	2.7680E+01	-9.8051E+00	0.0000E+00	0	3
8.038037E+04	2.0000E-02	2.0000E-03	2.180000E+01	2.6053E+01	-8.5190E+00	0.0000E+00	0	3
6.384839E+04	2.0000E-02	2.0000E-03	2.591000E+01	3.0871E+01	-1.3500E+01	0.0000E+00	0	3
5.071658E+04	2.0000E-02	2.0000E-03	2.684000E+01	2.3102E+01	-8.6118E+00	0.0000E+00	0	3
4.028561E+04	2.0000E-02	2.0000E-03	2.778000E+01	7.1325E+00	-1.4829E+00	0.0000E+00	0	3
3.200000E+04	2.0000E-02	2.0000E-03	2.871000E+01	2.5837E+01	-8.3215E+00	0.0000E+00	0	3
2.541850E+04	2.0000E-02	2.0000E-03	3.316000E+01	3.5754E+01	-1.5532E+01	0.0000E+00	0	3
2.019063E+04	2.0000E-02	2.0000E-03	3.397000E+01	4.1768E+01	-1.8686E+01	0.0000E+00	0	3
1.603799E+04	2.0000E-02	2.0000E-03	3.480000E+01	4.5454E+01	-1.9918E+01	0.0000E+00	0	3
1.273943E+04	2.0000E-02	2.0000E-03	3.561000E+01	4.8192E+01	-2.0994E+01	0.0000E+00	0	3
1.011929E+04	2.0000E-02	2.0000E-03	3.655000E+01	5.1225E+01	-2.1862E+01	0.0000E+00	0	3
8.038037E+03	2.0000E-02	2.0000E-03	3.737000E+01	5.5072E+01	-2.2848E+01	0.0000E+00	0	3
6.384839E+03	2.0000E-02	2.0000E-03	3.816000E+01	5.8693E+01	-2.3397E+01	0.0000E+00	0	3
5.071658E+03	2.0000E-02	2.0000E-03	3.911000E+01	6.2138E+01	-2.4070E+01	0.0000E+00	0	3
4.028561E+03	2.0000E-02	2.0000E-03	4.018000E+01	6.6047E+01	-2.4627E+01	0.0000E+00	0	3
3.200000E+03	2.0000E-02	2.0000E-03	4.112000E+01	6.9469E+01	-2.4842E+01	0.0000E+00	0	3
2.541850E+03	2.0000E-02	2.0000E-03	4.193000E+01	7.3653E+01	-2.5295E+01	0.0000E+00	0	3
2.019063E+03	2.0000E-02	2.0000E-03	4.473000E+01	7.7076E+01	-2.5625E+01	0.0000E+00	0	4
1.603799E+03	2.0000E-02	2.0000E-03	4.556000E+01	8.0363E+01	-2.5916E+01	0.0000E+00	0	4
1.273943E+03	2.0000E-02	2.0000E-03	4.649000E+01	8.3899E+01	-2.6577E+01	0.0000E+00	0	4
1.011929E+03	2.0000E-02	2.0000E-03	4.744000E+01	8.7097E+01	-2.7630E+01	0.0000E+00	0	4
8.038037E+02	2.0000E-02	2.0000E-03	4.837000E+01	8.1293E+01	-2.1675E+01	0.0000E+00	0	4
6.384839E+02	2.0000E-02	2.0000E-03	4.943000E+01	9.1452E+01	-2.9583E+01	0.0000E+00	0	4
5.071658E+02	2.0000E-02	2.0000E-03	5.248000E+01	5.9543E+00	-1.0158E+00	0.0000E+00	32	3
4.028561E+02	2.0000E-02	2.0000E-03	5.739000E+01	9.5103E+01	-2.9293E+01	0.0000E+00	32	2
3.200000E+02	2.0000E-02	2.0000E-03	5.949000E+01	1.0942E+02	-3.1399E+01	0.0000E+00	0	4
2.541850E+02	2.0000E-02	2.0000E-03	6.207000E+01	1.0868E+02	-3.5394E+01	0.0000E+00	0	4
2.019064E+02	2.0000E-02	2.0000E-03	6.286000E+01	1.1032E+02	-3.8778E+01	0.0000E+00	0	4
1.603799E+02	2.0000E-02	2.0000E-03	6.371000E+01	1.1412E+02	-4.3319E+01	0.0000E+00	0	4
1.273943E+02	2.0000E-02	2.0000E-03	6.452000E+01	1.1692E+02	-4.9282E+01	0.0000E+00	0	4
1.011929E+02	2.0000E-02	2.0000E-03	6.534000E+01	1.1877E+02	-5.6572E+01	0.0000E+00	0	4
8.038037E+01	2.0000E-02	2.0000E-03	6.616000E+01	1.2318E+02	-6.5889E+01	0.0000E+00	0	4
6.384839E+01	2.0000E-02	2.0000E-03	6.698000E+01	1.2821E+02	-7.3494E+01	0.0000E+00	0	4
5.071658E+01	2.0000E-02	2.0000E-03	6.780000E+01	1.3530E+02	-9.6853E+01	0.0000E+00	0	4
4.028561E+01	2.0000E-02	2.0000E-03	6.862000E+01	1.4243E+02	-1.1783E+02	0.0000E+00	0	4
3.200000E+01	2.0000E-02	2.0000E-03	6.943000E+01	1.5848E+02	-1.3912E+02	0.0000E+00	0	4
2.541850E+01	2.0000E-02	2.0000E-03	7.026000E+01	1.7400E+02	-1.6331E+02	0.0000E+00	0	4
2.019063E+01	2.0000E-02	2.0000E-03	7.119000E+01	1.9846E+02	-1.9230E+02	0.0000E+00	0	4
1.603799E+01	2.0000E-02	2.0000E-03	7.247000E+01	2.3327E+02	-1.6065E+02	0.0000E+00	0	4
1.273943E+01	2.0000E-02	2.0000E-03	7.340000E+01	2.4603E+02	-2.5685E+02	0.0000E+00	0	4
1.011929E+01	2.0000E-02	2.0000E-03	7.480000E+01	1.4460E+02	-9.8987E+01	0.0000E+00	0	4
8.038040E+00	2.0000E-02	2.0000E-03	7.573000E+01	3.5545E+02	-2.8717E+02	0.0000E+00	0	4
6.384840E+00	2.0000E-02	2.0000E-03	8.114000E+01	5.3256E+00	-8.1912E-01	0.0000E+00	32	4
5.071660E+00	2.0000E-02	2.0000E-03	8.524000E+01	4.7280E+02	-3.4161E+02	0.0000E+00	0	5
4.028560E+00	2.0000E-02	2.0000E-03	8.617000E+01	5.4507E+02	-3.4467E+02	0.0000E+00	1	5
3.200000E+00	2.0000E-02	2.0000E-03	8.733000E+01	6.0513E+02	-3.4391E+02	0.0000E+00	1	5
2.541850E+00	2.0000E-02	2.0000E-03	8.873000E+01	6.7665E+02	-3.2791E+02	0.0000E+00	1	5
2.019060E+00	2.0000E-02	2.0000E-03	9.015000E+01	7.2039E+02	-3.2524E+02	0.0000E+00	1	5
1.603800E+00	2.0000E-02	2.0000E-03	9.144000E+01	7.7752E+02	-3.1891E+02	0.0000E+00	1	5
1.273940E+00	2.0000E-02	2.0000E-03	9.296000E+01	8.1779E+02	-2.9119E+02	0.0000E+00	1	5
1.011930E+00	2.0000E-02	2.0000E-03	9.459000E+01	8.4537E+02	-2.7076E+02	0.0000E+00	1	5
1.000000E+00	2.0000E-02	2.0000E-03	9.623000E+01	8.0895E+02	-2.3868E+02	0.0000E+00	1	5
