ZPLOT2 ASCII
  Measured Data, ZPlot:       3.5f
  Experiment Type:            Sweep Frequency, Control Voltage
  Date:                       11-05-2019
  Time:                       00:48:30
  Open Circuit Potential (V): 0.0022
  Begin User Comments:        0
  End User Comments:          0
  Begin Experiment:           0
    Potential-DC:             0
    Potential-DC Type:        0
    Potential-AC:             20
    Potential-Monitor Type:   0
    Potential-Monitor TargetI:1
    Potential-Monitor Limit:  3000
    Potential-Monitor Error:  25
    Current-DC:               0
    Current-AC:               0.1
    Current-Monitor Type:     0
    Current-Monitor TargetE:  20
    Current-Monitor Limit:    60
    Current-Monitor Error:    25
    vs Freq-Initial:          100000
    vs Freq-Final:            1
    vs Freq-Lin/Log Type:     1
    vs Freq-Linear Type:      1
    vs Freq-Linear Interval:  100
    vs Freq-Log Type:         0
    vs Freq-Log Interval:     10
    Harmonics:                3
    PolE-Initial:             0
    PolE-Final:               0.2
    PolE-InitialType:         0
    PolE-FinalType:           0
    PolE-SweepRate:           1
    PolE-SweepRateType:       0
    PolE-DataRate:            5
    PolE-SegmentNo:           2
    PolE-IR:                  0
    AmplE-Initial:            10
    AmplE-Final:              200
    AmplE-SweepRate:          1
    AmplE-DataRate:           5
    AmplE-SegmentNo:          2
    PolI-Initial:             0
    PolI-Vertex:              0.01
    PolI-Final:               0.01
    PolI-SweepRate:           0.1
    PolI-SweepRateType:       0
    PolI-DataRate:            5
    PolI-SegmentNo:           2
    AmplI-Initial:            0.1
    AmplI-Final:              10
    AmplI-SweepRate:          0.1
    AmplI-DataRate:           5
    AmplI-SegmentNo:          2
    vs Time-Freq:             0.001
    vs Time-Harmonic:         1
    vs Time-Total Time:       100
    vs Time-Time Type:        0
    vs Time-Interval:         5
  End Experiment:             0
  Begin Pstat/Gstat:          1287
    Booster Type:             0
    Booster Name:             None
    Pstat Range High:         0
    Pstat Range Low:          0
    Pstat Range Frequency:    6
    Pstat Range Minimum:      0
    Pstat Limit Range:        0
    Pstat Limit Type:         1
    Pstat Bandwidth:          2
    Pstat Use Aux:            0
    Gstat Range:              0
    Gstat Bandwidth:          2
    Filter:                   1
    Error Beep:               1
    Bias Rejection:           1
    Attenuator:               2
    Grounding:                0
    Calibration File
  End Pstat/Gstat:            1287
  Begin Analyzer:             1260
    Z60 Mode:                 3
    Z60 GD Freq-:             5
    Z60 GD Freq+:             5
    Bias Voltage:             0
    Auto Integration Type:    0
    Integration Time Type:    0
    Integration Seconds:      0.2
    Integration Cycles:       1
    Delay Time Type:          1
    Delay Seconds:            0
    Delay Cycles:             0
    Source:                   2
    SourceI:                  1
    Error Beep:               0
    Range V1:                 3
    Coupling V1:              0
    Input V1:                 0
    Outer V1:                 1
    Location V1:              0
    Range V2:                 3
    Coupling V2:              0
    Input V2:                 0
    Outer V2:                 1
    Location V2:              0
    Coupling I:               0
  End Analyzer:               1260
  Begin Information:          Cell Information
    Surface Area:             1
    Density:                  0
    Weight:                   0
    Polarity:                 0
    PolarityI:                0
    Corrosion Unit Type:      0
    Reference Type:           0
    Reference Potential:      0
    User-Defined Potential:   0
    Stern-Geary:              26
  End Information:            Cell Information
  Null Configuration:         0,3,0,1,100000,1
  Data Points:                51
  Freq(Hz)	Ampl	Bias	Time(Sec)	Z'(a)	Z''(b)	Aux	Err	Range
End Comments
1.000000E+05	2.0000E-02	2.2000E-03	4.480000E+00	2.6481E+01	-9.9752E+00	0.0000E+00	0	3
7.943282E+04	2.0000E-02	2.2000E-03	5.200000E+00	2.8650E+01	-1.0463E+01	0.0000E+00	0	3
6.309573E+04	2.0000E-02	2.2000E-03	9.180000E+00	2.9857E+01	-1.1470E+01	0.0000E+00	0	3
5.011872E+04	2.0000E-02	2.2000E-03	9.880000E+00	2.9156E+01	-1.1933E+01	0.0000E+00	0	3
3.981072E+04	2.0000E-02	2.2000E-03	1.058000E+01	3.2498E+01	-1.5186E+01	0.0000E+00	0	3
3.162278E+04	2.0000E-02	2.2000E-03	1.129000E+01	3.5769E+01	-1.4439E+01	0.0000E+00	0	3
2.511886E+04	2.0000E-02	2.2000E-03	1.198000E+01	3.8069E+01	-1.5057E+01	0.0000E+00	0	3
1.995262E+04	2.0000E-02	2.2000E-03	1.268000E+01	4.0246E+01	-1.5443E+01	0.0000E+00	0	3
1.584893E+04	2.0000E-02	2.2000E-03	1.337000E+01	4.2886E+01	-1.6031E+01	0.0000E+00	0	3
1.258925E+04	2.0000E-02	2.2000E-03	1.409000E+01	4.5306E+01	-1.6256E+01	0.0000E+00	0	3
1.000000E+04	2.0000E-02	2.2000E-03	1.480000E+01	4.7734E+01	-1.6671E+01	0.0000E+00	0	3
7.943282E+03	2.0000E-02	2.2000E-03	1.549000E+01	5.0592E+01	-1.6833E+01	0.0000E+00	0	3
6.309573E+03	2.0000E-02	2.2000E-03	1.620000E+01	5.3114E+01	-1.7110E+01	0.0000E+00	0	3
5.011872E+03	2.0000E-02	2.2000E-03	1.689000E+01	5.5818E+01	-1.7210E+01	0.0000E+00	0	3
3.981072E+03	2.0000E-02	2.2000E-03	1.762000E+01	5.8003E+01	-1.7181E+01	0.0000E+00	0	3
3.162278E+03	2.0000E-02	2.2000E-03	1.832000E+01	6.0975E+01	-1.7358E+01	0.0000E+00	0	3
2.511886E+03	2.0000E-02	2.2000E-03	1.902000E+01	6.3065E+01	-1.7440E+01	0.0000E+00	0	3
1.995262E+03	2.0000E-02	2.2000E-03	1.983000E+01	6.5283E+01	-1.7456E+01	0.0000E+00	0	3
1.584893E+03	2.0000E-02	2.2000E-03	2.067000E+01	6.8024E+01	-1.7737E+01	0.0000E+00	0	3
1.258925E+03	2.0000E-02	2.2000E-03	2.147000E+01	6.9465E+01	-1.7838E+01	0.0000E+00	0	3
1.000000E+03	2.0000E-02	2.2000E-03	2.229000E+01	7.2611E+01	-1.8526E+01	0.0000E+00	0	3
7.943282E+02	2.0000E-02	2.2000E-03	2.309000E+01	7.5386E+01	-1.9247E+01	0.0000E+00	0	3
6.309573E+02	2.0000E-02	2.2000E-03	2.393000E+01	7.7384E+01	-1.9343E+01	0.0000E+00	0	3
5.011872E+02	2.0000E-02	2.2000E-03	2.650000E+01	7.9327E+01	-2.0102E+01	0.0000E+00	0	4
3.981072E+02	2.0000E-02	2.2000E-03	2.732000E+01	8.1386E+01	-2.1073E+01	0.0000E+00	0	4
3.162278E+02	2.0000E-02	2.2000E-03	2.826000E+01	8.3050E+01	-2.2280E+01	0.0000E+00	0	4
2.511886E+02	2.0000E-02	2.2000E-03	3.071000E+01	8.4758E+01	-2.5060E+01	0.0000E+00	0	4
1.995262E+02	2.0000E-02	2.2000E-03	3.142000E+01	8.6221E+01	-2.8548E+01	0.0000E+00	0	4
1.584893E+02	2.0000E-02	2.2000E-03	3.212000E+01	8.7148E+01	-3.2709E+01	0.0000E+00	0	4
1.258925E+02	2.0000E-02	2.2000E-03	3.282000E+01	8.9916E+01	-3.9184E+01	0.0000E+00	0	4
1.000000E+02	2.0000E-02	2.2000E-03	3.353000E+01	9.2337E+01	-4.6079E+01	0.0000E+00	0	4
7.943282E+01	2.0000E-02	2.2000E-03	3.421000E+01	9.6178E+01	-5.5554E+01	0.0000E+00	0	4
6.309573E+01	2.0000E-02	2.2000E-03	3.493000E+01	1.0209E+02	-7.5286E+01	0.0000E+00	0	4
5.011872E+01	2.0000E-02	2.2000E-03	3.563000E+01	1.0753E+02	-8.1371E+01	0.0000E+00	0	4
3.981072E+01	2.0000E-02	2.2000E-03	3.634000E+01	1.1557E+02	-9.5621E+01	0.0000E+00	0	4
3.162278E+01	2.0000E-02	2.2000E-03	3.704000E+01	1.2903E+02	-1.1436E+02	0.0000E+00	0	4
2.511886E+01	2.0000E-02	2.2000E-03	3.785000E+01	1.4585E+02	-1.3319E+02	0.0000E+00	0	4
1.995262E+01	2.0000E-02	2.2000E-03	3.855000E+01	1.6566E+02	-1.5269E+02	0.0000E+00	0	4
1.584893E+01	2.0000E-02	2.2000E-03	3.937000E+01	1.9191E+02	-1.7266E+02	0.0000E+00	0	4
1.258925E+01	2.0000E-02	2.2000E-03	4.019000E+01	2.2758E+02	-1.8962E+02	0.0000E+00	0	4
1.000000E+01	2.0000E-02	2.2000E-03	4.089000E+01	2.5953E+02	-2.0513E+02	0.0000E+00	0	4
7.943280E+00	2.0000E-02	2.2000E-03	4.170000E+01	2.9742E+02	-2.1643E+02	0.0000E+00	0	4
6.309570E+00	2.0000E-02	2.2000E-03	4.289000E+01	3.3925E+02	-2.2177E+02	0.0000E+00	0	4
5.011870E+00	2.0000E-02	2.2000E-03	4.370000E+01	3.7852E+02	-2.2371E+02	0.0000E+00	0	4
3.981070E+00	2.0000E-02	2.2000E-03	4.463000E+01	4.1629E+02	-2.2258E+02	0.0000E+00	0	4
3.162280E+00	2.0000E-02	2.2000E-03	4.568000E+01	4.5571E+02	-2.1498E+02	0.0000E+00	0	4
2.511890E+00	2.0000E-02	2.2000E-03	4.687000E+01	4.9210E+02	-2.0528E+02	0.0000E+00	0	4
1.995260E+00	2.0000E-02	2.2000E-03	4.791000E+01	5.2454E+02	-1.9745E+02	0.0000E+00	0	4
1.584890E+00	2.0000E-02	2.2000E-03	4.909000E+01	5.5452E+02	-1.8495E+02	0.0000E+00	0	4
1.258930E+00	2.0000E-02	2.2000E-03	5.038000E+01	5.7641E+02	-1.7457E+02	0.0000E+00	0	4
1.000000E+00	2.0000E-02	2.2000E-03	5.190000E+01	6.0547E+02	-1.6681E+02	0.0000E+00	0	4
