ZPLOT2 ASCII
  Measured Data, ZPlot:       3.5f
  Experiment Type:            Sweep Frequency, Control Voltage
  Date:                       11-05-2019
  Time:                       15:08:38
  Open Circuit Potential (V): 0.0022
  Begin User Comments:        0
  End User Comments:          0
  Begin Experiment:           0
    Potential-DC:             0
    Potential-DC Type:        1
    Potential-AC:             20
    Potential-Monitor Type:   0
    Potential-Monitor TargetI:1
    Potential-Monitor Limit:  3000
    Potential-Monitor Error:  25
    Current-DC:               0
    Current-AC:               0.1
    Current-Monitor Type:     0
    Current-Monitor TargetE:  20
    Current-Monitor Limit:    60
    Current-Monitor Error:    25
    vs Freq-Initial:          1000000
    vs Freq-Final:            0.001
    vs Freq-Lin/Log Type:     1
    vs Freq-Linear Type:      1
    vs Freq-Linear Interval:  100
    vs Freq-Log Type:         0
    vs Freq-Log Interval:     10
    Harmonics:                3
    PolE-Initial:             0
    PolE-Final:               0.2
    PolE-InitialType:         0
    PolE-FinalType:           0
    PolE-SweepRate:           1
    PolE-SweepRateType:       0
    PolE-DataRate:            5
    PolE-SegmentNo:           2
    PolE-IR:                  0
    AmplE-Initial:            10
    AmplE-Final:              200
    AmplE-SweepRate:          1
    AmplE-DataRate:           5
    AmplE-SegmentNo:          2
    PolI-Initial:             0
    PolI-Vertex:              0.01
    PolI-Final:               0.01
    PolI-SweepRate:           0.1
    PolI-SweepRateType:       0
    PolI-DataRate:            5
    PolI-SegmentNo:           2
    AmplI-Initial:            0.1
    AmplI-Final:              10
    AmplI-SweepRate:          0.1
    AmplI-DataRate:           5
    AmplI-SegmentNo:          2
    vs Time-Freq:             0.001
    vs Time-Harmonic:         1
    vs Time-Total Time:       100
    vs Time-Time Type:        0
    vs Time-Interval:         5
  End Experiment:             0
  Begin Pstat/Gstat:          1287
    Booster Type:             0
    Booster Name:             None
    Pstat Range High:         0
    Pstat Range Low:          0
    Pstat Range Frequency:    6
    Pstat Range Minimum:      0
    Pstat Limit Range:        0
    Pstat Limit Type:         1
    Pstat Bandwidth:          2
    Pstat Use Aux:            0
    Gstat Range:              0
    Gstat Bandwidth:          2
    Filter:                   1
    Error Beep:               1
    Bias Rejection:           1
    Attenuator:               2
    Grounding:                0
    Calibration File
  End Pstat/Gstat:            1287
  Begin Analyzer:             1260
    Z60 Mode:                 3
    Z60 GD Freq-:             5
    Z60 GD Freq+:             5
    Bias Voltage:             0
    Auto Integration Type:    0
    Integration Time Type:    0
    Integration Seconds:      0.2
    Integration Cycles:       1
    Delay Time Type:          1
    Delay Seconds:            0
    Delay Cycles:             0
    Source:                   2
    SourceI:                  1
    Error Beep:               0
    Range V1:                 3
    Coupling V1:              0
    Input V1:                 0
    Outer V1:                 1
    Location V1:              0
    Range V2:                 3
    Coupling V2:              0
    Input V2:                 0
    Outer V2:                 1
    Location V2:              0
    Coupling I:               0
  End Analyzer:               1260
  Begin Information:          Cell Information
    Surface Area:             1
    Density:                  0
    Weight:                   0
    Polarity:                 0
    PolarityI:                0
    Corrosion Unit Type:      0
    Reference Type:           0
    Reference Potential:      0
    User-Defined Potential:   0
    Stern-Geary:              26
  End Information:            Cell Information
  Null Configuration:         0,3,0,1,1000000,0.001
  Data Points:                70
  Freq(Hz)	Ampl	Bias	Time(Sec)	Z'(a)	Z''(b)	Aux	Err	Range
End Comments
1.000000E+06	2.0000E-02	0.0000E+00	2.660000E+00	-4.1674E-02	-2.7579E-01	0.0000E+00	0	1
7.943282E+05	2.0000E-02	0.0000E+00	3.360000E+00	2.3967E-01	-5.7405E-01	0.0000E+00	0	1
6.309573E+05	2.0000E-02	0.0000E+00	9.330000E+00	1.9139E+01	-3.5271E+00	0.0000E+00	0	3
5.011872E+05	2.0000E-02	0.0000E+00	1.005000E+01	2.1164E+01	-8.3346E+00	0.0000E+00	0	3
3.981072E+05	2.0000E-02	0.0000E+00	1.073000E+01	2.3628E+01	-8.9918E+00	0.0000E+00	0	3
3.162278E+05	2.0000E-02	0.0000E+00	1.145000E+01	2.4775E+01	-9.6103E+00	0.0000E+00	0	3
2.511886E+05	2.0000E-02	0.0000E+00	1.215000E+01	2.6388E+01	-1.0630E+01	0.0000E+00	0	3
1.995262E+05	2.0000E-02	0.0000E+00	1.285000E+01	2.7981E+01	-1.1385E+01	0.0000E+00	0	3
1.584893E+05	2.0000E-02	0.0000E+00	1.356000E+01	2.9950E+01	-1.2136E+01	0.0000E+00	0	3
1.258925E+05	2.0000E-02	0.0000E+00	1.425000E+01	3.1912E+01	-1.2795E+01	0.0000E+00	0	3
1.000000E+05	2.0000E-02	0.0000E+00	1.496000E+01	3.3345E+01	-1.3585E+01	0.0000E+00	0	3
7.943282E+04	2.0000E-02	0.0000E+00	1.565000E+01	3.6092E+01	-1.3983E+01	0.0000E+00	0	3
6.309573E+04	2.0000E-02	0.0000E+00	1.963000E+01	3.8272E+01	-1.5209E+01	0.0000E+00	0	3
5.011872E+04	2.0000E-02	0.0000E+00	2.034000E+01	3.6999E+01	-1.4521E+01	0.0000E+00	0	3
3.981072E+04	2.0000E-02	0.0000E+00	2.104000E+01	4.1872E+01	-1.5756E+01	0.0000E+00	0	3
3.162278E+04	2.0000E-02	0.0000E+00	2.175000E+01	4.6355E+01	-1.6801E+01	0.0000E+00	0	3
2.511886E+04	2.0000E-02	0.0000E+00	2.245000E+01	4.7873E+01	-1.6402E+01	0.0000E+00	0	3
1.995262E+04	2.0000E-02	0.0000E+00	2.313000E+01	5.0095E+01	-1.6445E+01	0.0000E+00	0	3
1.584893E+04	2.0000E-02	0.0000E+00	2.385000E+01	5.2069E+01	-1.6269E+01	0.0000E+00	0	3
1.258925E+04	2.0000E-02	0.0000E+00	2.455000E+01	5.4948E+01	-1.5654E+01	0.0000E+00	0	3
1.000000E+04	2.0000E-02	0.0000E+00	2.525000E+01	5.6935E+01	-1.6746E+01	0.0000E+00	0	3
7.943282E+03	2.0000E-02	0.0000E+00	2.595000E+01	5.9129E+01	-1.4656E+01	0.0000E+00	0	3
6.309573E+03	2.0000E-02	0.0000E+00	2.666000E+01	6.1403E+01	-1.5029E+01	0.0000E+00	0	3
5.011872E+03	2.0000E-02	0.0000E+00	2.736000E+01	6.3236E+01	-1.4891E+01	0.0000E+00	0	3
3.981072E+03	2.0000E-02	0.0000E+00	2.807000E+01	6.5346E+01	-1.5045E+01	0.0000E+00	0	3
3.162278E+03	2.0000E-02	0.0000E+00	2.877000E+01	6.7332E+01	-1.5049E+01	0.0000E+00	0	3
2.511886E+03	2.0000E-02	0.0000E+00	2.959000E+01	6.9378E+01	-1.5213E+01	0.0000E+00	0	3
1.995262E+03	2.0000E-02	0.0000E+00	3.029000E+01	7.0961E+01	-1.5468E+01	0.0000E+00	0	3
1.584893E+03	2.0000E-02	0.0000E+00	3.109000E+01	7.3559E+01	-1.6058E+01	0.0000E+00	0	3
1.258925E+03	2.0000E-02	0.0000E+00	3.193000E+01	7.5914E+01	-1.6126E+01	0.0000E+00	0	3
1.000000E+03	2.0000E-02	0.0000E+00	3.275000E+01	7.7903E+01	-1.6916E+01	0.0000E+00	0	3
7.943282E+02	2.0000E-02	0.0000E+00	3.532000E+01	7.9054E+01	-1.7712E+01	0.0000E+00	0	4
6.309573E+02	2.0000E-02	0.0000E+00	3.615000E+01	8.1538E+01	-1.8180E+01	0.0000E+00	0	4
5.011872E+02	2.0000E-02	0.0000E+00	3.696000E+01	8.2928E+01	-1.8921E+01	0.0000E+00	0	4
3.981072E+02	2.0000E-02	0.0000E+00	3.777000E+01	8.4830E+01	-2.0608E+01	0.0000E+00	0	4
3.162278E+02	2.0000E-02	0.0000E+00	3.858000E+01	8.6596E+01	-2.2765E+01	0.0000E+00	0	4
2.511886E+02	2.0000E-02	0.0000E+00	4.106000E+01	8.7875E+01	-2.5330E+01	0.0000E+00	0	4
1.995262E+02	2.0000E-02	0.0000E+00	4.176000E+01	8.9187E+01	-2.9412E+01	0.0000E+00	0	4
1.584893E+02	2.0000E-02	0.0000E+00	4.246000E+01	8.9413E+01	-3.4084E+01	0.0000E+00	0	4
1.258925E+02	2.0000E-02	0.0000E+00	4.315000E+01	9.2285E+01	-4.1198E+01	0.0000E+00	0	4
1.000000E+02	2.0000E-02	0.0000E+00	4.386000E+01	9.4770E+01	-4.9315E+01	0.0000E+00	0	4
7.943282E+01	2.0000E-02	0.0000E+00	4.457000E+01	9.7885E+01	-5.9805E+01	0.0000E+00	0	4
6.309573E+01	2.0000E-02	0.0000E+00	4.526000E+01	1.0361E+02	-6.9785E+01	0.0000E+00	0	4
5.011872E+01	2.0000E-02	0.0000E+00	4.597000E+01	1.0809E+02	-8.7230E+01	0.0000E+00	0	4
3.981072E+01	2.0000E-02	0.0000E+00	4.668000E+01	1.1751E+02	-1.0550E+02	0.0000E+00	0	4
3.162278E+01	2.0000E-02	0.0000E+00	4.738000E+01	1.2991E+02	-1.2530E+02	0.0000E+00	0	4
2.511886E+01	2.0000E-02	0.0000E+00	4.818000E+01	1.4397E+02	-1.4932E+02	0.0000E+00	0	4
1.995262E+01	2.0000E-02	0.0000E+00	4.889000E+01	1.6592E+02	-1.7578E+02	0.0000E+00	0	4
1.584893E+01	2.0000E-02	0.0000E+00	4.972000E+01	1.9345E+02	-2.0292E+02	0.0000E+00	0	4
1.258925E+01	2.0000E-02	0.0000E+00	5.053000E+01	2.3062E+02	-2.3076E+02	0.0000E+00	0	4
1.000000E+01	2.0000E-02	0.0000E+00	5.136000E+01	2.6750E+02	-2.5667E+02	0.0000E+00	0	4
7.943280E+00	2.0000E-02	0.0000E+00	5.216000E+01	3.1136E+02	-2.7953E+02	0.0000E+00	0	4
6.309570E+00	2.0000E-02	0.0000E+00	5.321000E+01	3.6575E+02	-2.9760E+02	0.0000E+00	0	4
5.011870E+00	2.0000E-02	0.0000E+00	5.404000E+01	4.1631E+02	-3.1176E+02	0.0000E+00	0	4
3.981070E+00	2.0000E-02	0.0000E+00	5.498000E+01	4.7601E+02	-3.1758E+02	0.0000E+00	0	4
3.162280E+00	2.0000E-02	0.0000E+00	5.604000E+01	5.3175E+02	-3.2049E+02	0.0000E+00	0	4
2.511890E+00	2.0000E-02	0.0000E+00	5.720000E+01	5.9387E+02	-3.1280E+02	0.0000E+00	0	4
1.995260E+00	2.0000E-02	0.0000E+00	5.826000E+01	6.3924E+02	-3.1537E+02	0.0000E+00	0	4
1.584890E+00	2.0000E-02	0.0000E+00	5.943000E+01	6.9332E+02	-3.0520E+02	0.0000E+00	0	4
1.258930E+00	2.0000E-02	0.0000E+00	6.071000E+01	7.3553E+02	-2.9611E+02	0.0000E+00	0	4
1.000000E+00	2.0000E-02	0.0000E+00	6.481000E+01	5.2609E+02	-1.8331E+02	0.0000E+00	33	5
7.943300E-01	2.0000E-02	0.0000E+00	6.657000E+01	8.2838E+02	-2.8941E+02	0.0000E+00	33	5
6.309600E-01	2.0000E-02	0.0000E+00	6.973000E+01	8.6999E+02	-2.7752E+02	0.0000E+00	33	5
5.011900E-01	2.0000E-02	0.0000E+00	7.231000E+01	9.1316E+02	-2.6664E+02	0.0000E+00	33	5
3.981100E-01	2.0000E-02	0.0000E+00	7.535000E+01	9.4430E+02	-2.6180E+02	0.0000E+00	33	5
3.162300E-01	2.0000E-02	0.0000E+00	7.909000E+01	9.8632E+02	-2.5231E+02	0.0000E+00	33	5
2.511900E-01	2.0000E-02	0.0000E+00	8.365000E+01	1.0206E+03	-2.4956E+02	0.0000E+00	33	5
1.995300E-01	2.0000E-02	0.0000E+00	8.916000E+01	1.0533E+03	-2.4052E+02	0.0000E+00	33	5
1.584900E-01	2.0000E-02	0.0000E+00	9.607000E+01	1.0899E+03	-2.3031E+02	0.0000E+00	1	5
1.258900E-01	2.0000E-02	0.0000E+00	1.046000E+02	1.1282E+03	-2.2694E+02	0.0000E+00	33	5
