ZPLOT2 ASCII
  Measured Data, ZPlot:       3.5f
  Experiment Type:            Sweep Frequency, Control Voltage
  Date:                       11-05-2019
  Time:                       00:50:06
  Open Circuit Potential (V): 0.0022
  Begin User Comments:        0
  End User Comments:          0
  Begin Experiment:           0
    Potential-DC:             0
    Potential-DC Type:        0
    Potential-AC:             20
    Potential-Monitor Type:   0
    Potential-Monitor TargetI:1
    Potential-Monitor Limit:  3000
    Potential-Monitor Error:  25
    Current-DC:               0
    Current-AC:               0.1
    Current-Monitor Type:     0
    Current-Monitor TargetE:  20
    Current-Monitor Limit:    60
    Current-Monitor Error:    25
    vs Freq-Initial:          0.1
    vs Freq-Final:            100000
    vs Freq-Lin/Log Type:     1
    vs Freq-Linear Type:      1
    vs Freq-Linear Interval:  100
    vs Freq-Log Type:         0
    vs Freq-Log Interval:     10
    Harmonics:                3
    PolE-Initial:             0
    PolE-Final:               0.2
    PolE-InitialType:         0
    PolE-FinalType:           0
    PolE-SweepRate:           1
    PolE-SweepRateType:       0
    PolE-DataRate:            5
    PolE-SegmentNo:           2
    PolE-IR:                  0
    AmplE-Initial:            10
    AmplE-Final:              200
    AmplE-SweepRate:          1
    AmplE-DataRate:           5
    AmplE-SegmentNo:          2
    PolI-Initial:             0
    PolI-Vertex:              0.01
    PolI-Final:               0.01
    PolI-SweepRate:           0.1
    PolI-SweepRateType:       0
    PolI-DataRate:            5
    PolI-SegmentNo:           2
    AmplI-Initial:            0.1
    AmplI-Final:              10
    AmplI-SweepRate:          0.1
    AmplI-DataRate:           5
    AmplI-SegmentNo:          2
    vs Time-Freq:             0.001
    vs Time-Harmonic:         1
    vs Time-Total Time:       100
    vs Time-Time Type:        0
    vs Time-Interval:         5
  End Experiment:             0
  Begin Pstat/Gstat:          1287
    Booster Type:             0
    Booster Name:             None
    Pstat Range High:         0
    Pstat Range Low:          0
    Pstat Range Frequency:    6
    Pstat Range Minimum:      0
    Pstat Limit Range:        0
    Pstat Limit Type:         1
    Pstat Bandwidth:          2
    Pstat Use Aux:            0
    Gstat Range:              0
    Gstat Bandwidth:          2
    Filter:                   1
    Error Beep:               1
    Bias Rejection:           1
    Attenuator:               2
    Grounding:                0
    Calibration File
  End Pstat/Gstat:            1287
  Begin Analyzer:             1260
    Z60 Mode:                 3
    Z60 GD Freq-:             5
    Z60 GD Freq+:             5
    Bias Voltage:             0
    Auto Integration Type:    0
    Integration Time Type:    0
    Integration Seconds:      0.2
    Integration Cycles:       1
    Delay Time Type:          1
    Delay Seconds:            0
    Delay Cycles:             0
    Source:                   2
    SourceI:                  1
    Error Beep:               0
    Range V1:                 3
    Coupling V1:              0
    Input V1:                 0
    Outer V1:                 1
    Location V1:              0
    Range V2:                 3
    Coupling V2:              0
    Input V2:                 0
    Outer V2:                 1
    Location V2:              0
    Coupling I:               0
  End Analyzer:               1260
  Begin Information:          Cell Information
    Surface Area:             1
    Density:                  0
    Weight:                   0
    Polarity:                 0
    PolarityI:                0
    Corrosion Unit Type:      0
    Reference Type:           0
    Reference Potential:      0
    User-Defined Potential:   0
    Stern-Geary:              26
  End Information:            Cell Information
  Null Configuration:         0,3,0,1,0.1,100000
  Data Points:                61
  Freq(Hz)	Ampl	Bias	Time(Sec)	Z'(a)	Z''(b)	Aux	Err	Range
End Comments
1.000000E-01	2.0000E-02	2.2000E-03	3.754000E+01	6.9997E+02	-1.1109E+02	0.0000E+00	33	5
1.258900E-01	2.0000E-02	2.2000E-03	4.610000E+01	7.8644E+02	-1.0495E+02	0.0000E+00	1	5
1.584900E-01	2.0000E-02	2.2000E-03	5.299000E+01	7.6883E+02	-1.1313E+02	0.0000E+00	33	5
1.995300E-01	2.0000E-02	2.2000E-03	5.849000E+01	7.5080E+02	-1.1976E+02	0.0000E+00	1	5
2.511900E-01	2.0000E-02	2.2000E-03	6.307000E+01	7.3369E+02	-1.2591E+02	0.0000E+00	1	5
3.162300E-01	2.0000E-02	2.2000E-03	6.681000E+01	7.1784E+02	-1.3307E+02	0.0000E+00	33	5
3.981100E-01	2.0000E-02	2.2000E-03	6.985000E+01	6.9510E+02	-1.4004E+02	0.0000E+00	33	5
5.011900E-01	2.0000E-02	2.2000E-03	7.242000E+01	6.7781E+02	-1.4619E+02	0.0000E+00	33	5
6.309600E-01	2.0000E-02	2.2000E-03	7.453000E+01	6.5357E+02	-1.5681E+02	0.0000E+00	33	5
7.943300E-01	2.0000E-02	2.2000E-03	7.675000E+01	6.3391E+02	-1.6074E+02	0.0000E+00	1	5
1.000000E+00	2.0000E-02	2.2000E-03	7.827000E+01	6.0736E+02	-1.7046E+02	0.0000E+00	1	5
1.258930E+00	2.0000E-02	2.2000E-03	7.957000E+01	5.8636E+02	-1.7613E+02	0.0000E+00	1	5
1.584890E+00	2.0000E-02	2.2000E-03	8.072000E+01	5.5222E+02	-1.8908E+02	0.0000E+00	1	5
1.995260E+00	2.0000E-02	2.2000E-03	8.178000E+01	5.2520E+02	-1.9869E+02	0.0000E+00	1	5
2.511890E+00	2.0000E-02	2.2000E-03	8.285000E+01	4.9565E+02	-2.0768E+02	0.0000E+00	1	5
3.162280E+00	2.0000E-02	2.2000E-03	8.387000E+01	4.6130E+02	-2.1509E+02	0.0000E+00	1	5
3.981070E+00	2.0000E-02	2.2000E-03	8.472000E+01	4.2184E+02	-2.2326E+02	0.0000E+00	1	5
5.011870E+00	2.0000E-02	2.2000E-03	8.565000E+01	3.8199E+02	-2.2529E+02	0.0000E+00	1	5
6.309570E+00	2.0000E-02	2.2000E-03	8.646000E+01	3.4078E+02	-2.2399E+02	0.0000E+00	33	5
7.943280E+00	2.0000E-02	2.2000E-03	8.927000E+01	3.0136E+02	-2.1266E+02	0.0000E+00	0	4
1.000000E+01	2.0000E-02	2.2000E-03	9.009000E+01	1.6590E+02	-3.6613E+02	0.0000E+00	0	4
1.258925E+01	2.0000E-02	2.2000E-03	9.080000E+01	2.2239E+02	-1.9065E+02	0.0000E+00	0	4
1.584893E+01	2.0000E-02	2.2000E-03	9.161000E+01	1.9294E+02	-1.7163E+02	0.0000E+00	0	4
1.995262E+01	2.0000E-02	2.2000E-03	9.232000E+01	1.6603E+02	-1.5281E+02	0.0000E+00	0	4
2.511886E+01	2.0000E-02	2.2000E-03	9.314000E+01	1.4671E+02	-1.3293E+02	0.0000E+00	0	4
3.162278E+01	2.0000E-02	2.2000E-03	9.385000E+01	1.2904E+02	-1.1446E+02	0.0000E+00	0	4
3.981072E+01	2.0000E-02	2.2000E-03	9.454000E+01	1.1628E+02	-9.5408E+01	0.0000E+00	0	4
5.011872E+01	2.0000E-02	2.2000E-03	9.524000E+01	1.0728E+02	-7.8614E+01	0.0000E+00	0	4
6.309573E+01	2.0000E-02	2.2000E-03	9.594000E+01	1.0829E+02	-6.9667E+01	0.0000E+00	0	4
7.943282E+01	2.0000E-02	2.2000E-03	9.665000E+01	9.5986E+01	-5.4962E+01	0.0000E+00	0	4
1.000000E+02	2.0000E-02	2.2000E-03	9.735000E+01	9.2257E+01	-4.6101E+01	0.0000E+00	0	4
1.258925E+02	2.0000E-02	2.2000E-03	9.806000E+01	8.9688E+01	-3.8711E+01	0.0000E+00	0	4
1.584893E+02	2.0000E-02	2.2000E-03	9.876000E+01	8.8137E+01	-3.2340E+01	0.0000E+00	0	4
1.995262E+02	2.0000E-02	2.2000E-03	9.944000E+01	8.6095E+01	-2.8425E+01	0.0000E+00	0	4
2.511886E+02	2.0000E-02	2.2000E-03	1.001600E+02	8.4684E+01	-2.5069E+01	0.0000E+00	0	4
3.162278E+02	2.0000E-02	2.2000E-03	1.028500E+02	8.2575E+01	-2.2388E+01	0.0000E+00	0	4
3.981072E+02	2.0000E-02	2.2000E-03	1.036700E+02	8.1173E+01	-2.0978E+01	0.0000E+00	0	4
5.011872E+02	2.0000E-02	2.2000E-03	1.044800E+02	7.9684E+01	-1.9983E+01	0.0000E+00	0	4
6.309573E+02	2.0000E-02	2.2000E-03	1.053100E+02	7.7258E+01	-1.9229E+01	0.0000E+00	0	4
7.943282E+02	2.0000E-02	2.2000E-03	1.061300E+02	7.5305E+01	-1.8615E+01	0.0000E+00	0	4
1.000000E+03	2.0000E-02	2.2000E-03	1.069300E+02	7.3042E+01	-1.8139E+01	0.0000E+00	0	4
1.258925E+03	2.0000E-02	2.2000E-03	1.076500E+02	7.0852E+01	-1.7148E+01	0.0000E+00	0	4
1.584893E+03	2.0000E-02	2.2000E-03	1.084700E+02	6.8162E+01	-1.7359E+01	0.0000E+00	0	4
1.995262E+03	2.0000E-02	2.2000E-03	1.092800E+02	6.5925E+01	-1.7096E+01	0.0000E+00	0	4
2.511886E+03	2.0000E-02	2.2000E-03	1.100000E+02	6.3500E+01	-1.6939E+01	0.0000E+00	0	4
3.162278E+03	2.0000E-02	2.2000E-03	1.106900E+02	6.1190E+01	-1.7044E+01	0.0000E+00	0	4
3.981072E+03	2.0000E-02	2.2000E-03	1.113800E+02	5.8749E+01	-1.6697E+01	0.0000E+00	0	4
5.011872E+03	2.0000E-02	2.2000E-03	1.121000E+02	5.6419E+01	-1.6740E+01	0.0000E+00	0	4
6.309573E+03	2.0000E-02	2.2000E-03	1.128000E+02	5.3930E+01	-1.6575E+01	0.0000E+00	0	4
7.943282E+03	2.0000E-02	2.2000E-03	1.136200E+02	5.1438E+01	-1.6592E+01	0.0000E+00	0	4
1.000000E+04	2.0000E-02	2.2000E-03	1.143300E+02	4.9165E+01	-1.6687E+01	0.0000E+00	0	4
1.258925E+04	2.0000E-02	2.2000E-03	1.150300E+02	4.6557E+01	-1.6100E+01	0.0000E+00	0	4
1.584893E+04	2.0000E-02	2.2000E-03	1.157400E+02	4.3978E+01	-1.6095E+01	0.0000E+00	0	4
1.995262E+04	2.0000E-02	2.2000E-03	1.164400E+02	4.1652E+01	-1.5899E+01	0.0000E+00	0	4
2.511886E+04	2.0000E-02	2.2000E-03	1.171300E+02	3.9104E+01	-1.5880E+01	0.0000E+00	0	4
3.162278E+04	2.0000E-02	2.2000E-03	1.195900E+02	3.6771E+01	-1.5092E+01	0.0000E+00	0	3
3.981072E+04	2.0000E-02	2.2000E-03	1.202700E+02	3.2922E+01	-1.4615E+01	0.0000E+00	0	3
5.011872E+04	2.0000E-02	2.2000E-03	1.209900E+02	2.8887E+01	-1.1614E+01	0.0000E+00	0	3
6.309573E+04	2.0000E-02	2.2000E-03	1.216900E+02	3.0739E+01	-1.1029E+01	0.0000E+00	0	3
7.943282E+04	2.0000E-02	2.2000E-03	1.256700E+02	2.8424E+01	-1.0695E+01	0.0000E+00	0	3
1.000000E+05	2.0000E-02	2.2000E-03	1.263700E+02	2.7016E+01	-1.0644E+01	0.0000E+00	0	3
