ZPLOT2 ASCII
  Measured Data, ZPlot:       3.5f
  Experiment Type:            Sweep Frequency, Control Voltage
  Date:                       11-05-2019
  Time:                       17:52:35
  Open Circuit Potential (V): -0.0243
  Begin User Comments:        0
  End User Comments:          0
  Begin Experiment:           0
    Potential-DC:             0
    Potential-DC Type:        0
    Potential-AC:             20
    Potential-Monitor Type:   0
    Potential-Monitor TargetI:1
    Potential-Monitor Limit:  3000
    Potential-Monitor Error:  25
    Current-DC:               0
    Current-AC:               0.1
    Current-Monitor Type:     0
    Current-Monitor TargetE:  20
    Current-Monitor Limit:    60
    Current-Monitor Error:    25
    vs Freq-Initial:          3200000
    vs Freq-Final:            0.1
    vs Freq-Lin/Log Type:     1
    vs Freq-Linear Type:      1
    vs Freq-Linear Interval:  100
    vs Freq-Log Type:         0
    vs Freq-Log Interval:     10
    Harmonics:                3
    PolE-Initial:             0
    PolE-Final:               0.2
    PolE-InitialType:         0
    PolE-FinalType:           0
    PolE-SweepRate:           1
    PolE-SweepRateType:       0
    PolE-DataRate:            5
    PolE-SegmentNo:           2
    PolE-IR:                  0
    AmplE-Initial:            10
    AmplE-Final:              200
    AmplE-SweepRate:          1
    AmplE-DataRate:           5
    AmplE-SegmentNo:          2
    PolI-Initial:             0
    PolI-Vertex:              0.01
    PolI-Final:               0.01
    PolI-SweepRate:           0.1
    PolI-SweepRateType:       0
    PolI-DataRate:            5
    PolI-SegmentNo:           2
    AmplI-Initial:            0.1
    AmplI-Final:              10
    AmplI-SweepRate:          0.1
    AmplI-DataRate:           5
    AmplI-SegmentNo:          2
    vs Time-Freq:             0.001
    vs Time-Harmonic:         1
    vs Time-Total Time:       100
    vs Time-Time Type:        0
    vs Time-Interval:         5
  End Experiment:             0
  Begin Pstat/Gstat:          1287
    Booster Type:             0
    Booster Name:             None
    Pstat Range High:         5
    Pstat Range Low:          6
    Pstat Range Frequency:    50
    Pstat Range Minimum:      0
    Pstat Limit Range:        0
    Pstat Limit Type:         1
    Pstat Bandwidth:          2
    Pstat Use Aux:            0
    Gstat Range:              0
    Gstat Bandwidth:          2
    Filter:                   1
    Error Beep:               0
    Bias Rejection:           1
    Attenuator:               2
    Grounding:                0
    Calibration File
  End Pstat/Gstat:            1287
  Begin Analyzer:             1260
    Z60 Mode:                 3
    Z60 GD Freq-:             5
    Z60 GD Freq+:             5
    Bias Voltage:             0
    Auto Integration Type:    0
    Integration Time Type:    0
    Integration Seconds:      0.2
    Integration Cycles:       1
    Delay Time Type:          1
    Delay Seconds:            0
    Delay Cycles:             0
    Source:                   2
    SourceI:                  1
    Error Beep:               0
    Range V1:                 0
    Coupling V1:              0
    Input V1:                 0
    Outer V1:                 1
    Location V1:              0
    Range V2:                 0
    Coupling V2:              0
    Input V2:                 0
    Outer V2:                 1
    Location V2:              0
    Coupling I:               0
  End Analyzer:               1260
  Begin Information:          Cell Information
    Surface Area:             1
    Density:                  0
    Weight:                   0
    Polarity:                 0
    PolarityI:                0
    Corrosion Unit Type:      0
    Reference Type:           0
    Reference Potential:      0
    User-Defined Potential:   0
    Stern-Geary:              26
  End Information:            Cell Information
  Null Configuration:         0,3,0,1,3200000,0.1
  Data Points:                77
  Freq(Hz)	Ampl	Bias	Time(Sec)	Z'(a)	Z''(b)	Aux	Err	Range
End Comments
3.200000E+06	2.0000E-02	-2.4300E-02	2.870000E+00	8.7099E+02	9.5186E+02	0.0000E+00	33	5
2.541851E+06	2.0000E-02	-2.4300E-02	3.800000E+00	9.7488E+02	6.0844E+02	0.0000E+00	33	5
2.019064E+06	2.0000E-02	-2.4300E-02	4.740000E+00	4.8834E+02	9.2655E+02	0.0000E+00	1	5
1.603799E+06	2.0000E-02	-2.4300E-02	5.680000E+00	-6.2127E+02	2.1587E+02	0.0000E+00	1	5
1.273943E+06	2.0000E-02	-2.4300E-02	6.490000E+00	-2.2050E+03	-7.1153E+02	0.0000E+00	1	5
1.011929E+06	2.0000E-02	-2.4300E-02	7.430000E+00	-6.9617E+02	-2.5811E+02	0.0000E+00	1	5
8.038037E+05	2.0000E-02	-2.4300E-02	8.250000E+00	-4.4781E+02	-9.6358E+01	0.0000E+00	33	5
6.384839E+05	2.0000E-02	-2.4300E-02	1.083000E+01	-3.6524E+02	-1.2546E+02	0.0000E+00	33	5
5.071658E+05	2.0000E-02	-2.4300E-02	1.176000E+01	-2.6078E+02	-1.6552E+02	0.0000E+00	1	5
4.028561E+05	2.0000E-02	-2.4300E-02	1.270000E+01	-1.7675E+02	-1.8044E+02	0.0000E+00	33	5
3.200000E+05	2.0000E-02	-2.4300E-02	1.364000E+01	-1.3847E+02	-1.8763E+02	0.0000E+00	1	5
2.541850E+05	2.0000E-02	-2.4300E-02	1.445000E+01	-5.8993E+01	-1.8744E+02	0.0000E+00	1	5
2.019063E+05	2.0000E-02	-2.4300E-02	1.539000E+01	-1.8764E+00	-1.8090E+02	0.0000E+00	1	5
1.603799E+05	2.0000E-02	-2.4300E-02	1.632000E+01	2.8676E+01	-1.4462E+02	0.0000E+00	1	5
1.273943E+05	2.0000E-02	-2.4300E-02	1.725000E+01	1.1025E+02	-1.1550E+02	0.0000E+00	1	5
1.011929E+05	2.0000E-02	-2.4300E-02	1.830000E+01	3.7003E+01	-1.3120E+02	0.0000E+00	1	5
8.038037E+04	2.0000E-02	-2.4300E-02	1.926000E+01	5.9522E+01	5.9833E+01	0.0000E+00	1	5
6.384839E+04	2.0000E-02	-2.4300E-02	2.345000E+01	1.2845E+02	4.6369E+02	0.0000E+00	33	5
5.071658E+04	2.0000E-02	-2.4300E-02	2.438000E+01	-3.1404E+02	6.3373E+01	0.0000E+00	33	5
4.028561E+04	2.0000E-02	-2.4300E-02	2.532000E+01	-4.8347E+02	-1.4087E+01	0.0000E+00	33	5
3.200000E+04	2.0000E-02	-2.4300E-02	2.628000E+01	-7.1407E+01	-2.9475E+02	0.0000E+00	1	5
2.541850E+04	2.0000E-02	-2.4300E-02	2.721000E+01	1.7295E+01	-2.8464E+02	0.0000E+00	33	5
2.019063E+04	2.0000E-02	-2.4300E-02	2.814000E+01	1.6304E+01	-2.0820E+02	0.0000E+00	1	5
1.603799E+04	2.0000E-02	-2.4300E-02	2.909000E+01	7.3493E+01	-2.4395E+02	0.0000E+00	33	5
1.273943E+04	2.0000E-02	-2.4300E-02	3.001000E+01	1.3040E+02	-2.2496E+02	0.0000E+00	1	5
1.011929E+04	2.0000E-02	-2.4300E-02	3.096000E+01	1.6006E+02	-2.5557E+02	0.0000E+00	33	5
8.038037E+03	2.0000E-02	-2.4300E-02	3.201000E+01	2.0732E+02	-1.7911E+02	0.0000E+00	33	5
6.384839E+03	2.0000E-02	-2.4300E-02	3.295000E+01	2.2806E+02	-2.7132E+02	0.0000E+00	33	5
5.071658E+03	2.0000E-02	-2.4300E-02	3.388000E+01	2.9159E+02	-2.7717E+02	0.0000E+00	33	5
4.028561E+03	2.0000E-02	-2.4300E-02	3.481000E+01	3.3228E+02	-2.7234E+02	0.0000E+00	33	5
3.200000E+03	2.0000E-02	-2.4300E-02	3.575000E+01	3.6805E+02	-2.7749E+02	0.0000E+00	1	5
2.541850E+03	2.0000E-02	-2.4300E-02	3.676000E+01	4.0300E+02	-2.7049E+02	0.0000E+00	33	5
2.019063E+03	2.0000E-02	-2.4300E-02	3.773000E+01	4.3815E+02	-2.9645E+02	0.0000E+00	33	5
1.603799E+03	2.0000E-02	-2.4300E-02	3.879000E+01	5.0432E+02	-2.7020E+02	0.0000E+00	33	5
1.273943E+03	2.0000E-02	-2.4300E-02	3.986000E+01	5.3904E+02	-3.0479E+02	0.0000E+00	33	5
1.011929E+03	2.0000E-02	-2.4300E-02	4.091000E+01	5.8103E+02	-3.1268E+02	0.0000E+00	33	5
8.038037E+02	2.0000E-02	-2.4300E-02	4.195000E+01	6.0246E+02	-4.0128E+02	0.0000E+00	33	5
6.384839E+02	2.0000E-02	-2.4300E-02	4.301000E+01	6.1139E+02	-3.1809E+02	0.0000E+00	1	5
5.071658E+02	2.0000E-02	-2.4300E-02	4.394000E+01	6.5018E+02	-3.2661E+02	0.0000E+00	33	5
4.028561E+02	2.0000E-02	-2.4300E-02	4.499000E+01	7.3805E+02	-3.4194E+02	0.0000E+00	1	5
3.200000E+02	2.0000E-02	-2.4300E-02	4.605000E+01	1.5316E+03	-4.4428E+02	0.0000E+00	33	5
2.541850E+02	2.0000E-02	-2.4300E-02	4.875000E+01	7.8771E+02	-4.0134E+02	0.0000E+00	33	5
2.019064E+02	2.0000E-02	-2.4300E-02	4.969000E+01	8.2332E+02	-5.1566E+02	0.0000E+00	33	5
1.603799E+02	2.0000E-02	-2.4300E-02	5.062000E+01	8.1327E+02	-3.7271E+02	0.0000E+00	33	5
1.273943E+02	2.0000E-02	-2.4300E-02	5.156000E+01	1.2487E+03	7.1402E+01	0.0000E+00	33	5
1.011929E+02	2.0000E-02	-2.4300E-02	5.249000E+01	1.0235E+03	-4.8012E+02	0.0000E+00	33	5
8.038037E+01	2.0000E-02	-2.4300E-02	5.343000E+01	1.1811E+03	-4.7755E+02	0.0000E+00	33	5
6.384839E+01	2.0000E-02	-2.4300E-02	5.437000E+01	7.0294E+02	-1.1176E+03	0.0000E+00	33	5
5.071658E+01	2.0000E-02	-2.4300E-02	5.528000E+01	1.1919E+03	-6.6248E+02	0.0000E+00	1	5
4.028561E+01	2.0000E-02	-2.4300E-02	5.729000E+01	1.4058E+03	-1.0525E+03	0.0000E+00	0	6
3.200000E+01	2.0000E-02	-2.4300E-02	5.809000E+01	2.2572E+03	-8.2245E+02	0.0000E+00	0	6
2.541850E+01	2.0000E-02	-2.4300E-02	5.914000E+01	2.5675E+03	-1.6888E+03	0.0000E+00	33	6
2.019063E+01	2.0000E-02	-2.4300E-02	6.010000E+01	2.9183E+03	-9.9268E+02	0.0000E+00	33	6
1.603799E+01	2.0000E-02	-2.4300E-02	6.113000E+01	2.9412E+03	-1.9762E+03	0.0000E+00	33	6
1.273943E+01	2.0000E-02	-2.4300E-02	6.218000E+01	3.3501E+03	-1.7515E+03	0.0000E+00	1	6
1.011929E+01	2.0000E-02	-2.4300E-02	6.324000E+01	3.7040E+03	-1.3712E+03	0.0000E+00	1	6
8.038040E+00	2.0000E-02	-2.4300E-02	6.429000E+01	3.4904E+03	-2.7040E+03	0.0000E+00	33	6
6.384840E+00	2.0000E-02	-2.4300E-02	6.545000E+01	4.1862E+03	-2.3914E+03	0.0000E+00	1	6
5.071660E+00	2.0000E-02	-2.4300E-02	6.677000E+01	4.3709E+03	-3.1349E+03	0.0000E+00	33	6
4.028560E+00	2.0000E-02	-2.4300E-02	6.781000E+01	5.3967E+03	-3.0022E+03	0.0000E+00	33	6
3.200000E+00	2.0000E-02	-2.4300E-02	6.897000E+01	5.1573E+03	-4.6310E+03	0.0000E+00	33	6
2.541850E+00	2.0000E-02	-2.4300E-02	7.051000E+01	5.5627E+03	-5.0539E+03	0.0000E+00	33	6
2.019060E+00	2.0000E-02	-2.4300E-02	7.180000E+01	6.2356E+03	-6.5196E+03	0.0000E+00	33	6
1.603800E+00	2.0000E-02	-2.4300E-02	7.318000E+01	8.0941E+03	-7.4166E+03	0.0000E+00	33	6
1.273940E+00	2.0000E-02	-2.4300E-02	7.472000E+01	8.4037E+03	-6.6975E+03	0.0000E+00	33	6
1.011930E+00	2.0000E-02	-2.4300E-02	7.648000E+01	9.3665E+03	-6.1332E+03	0.0000E+00	33	6
8.038000E-01	2.0000E-02	-2.4300E-02	7.847000E+01	1.0108E+04	-8.0095E+03	0.0000E+00	33	6
6.384800E-01	2.0000E-02	-2.4300E-02	8.138000E+01	1.2124E+04	-7.2761E+03	0.0000E+00	33	6
5.071700E-01	2.0000E-02	-2.4300E-02	8.409000E+01	1.4624E+04	-8.4731E+03	0.0000E+00	33	6
4.028600E-01	2.0000E-02	-2.4300E-02	8.737000E+01	1.4611E+04	-8.1367E+03	0.0000E+00	33	6
3.200000E-01	2.0000E-02	-2.4300E-02	9.121000E+01	1.5883E+04	-7.7317E+03	0.0000E+00	33	6
2.541900E-01	2.0000E-02	-2.4300E-02	9.589000E+01	1.7369E+04	-8.5820E+03	0.0000E+00	33	6
2.019100E-01	2.0000E-02	-2.4300E-02	1.016300E+02	2.0043E+04	-7.4357E+03	0.0000E+00	33	6
1.603800E-01	2.0000E-02	-2.4300E-02	1.086400E+02	2.0496E+04	-8.4525E+03	0.0000E+00	1	6
1.273900E-01	2.0000E-02	-2.4300E-02	1.173300E+02	2.1561E+04	-8.6401E+03	0.0000E+00	33	6
1.011900E-01	2.0000E-02	-2.4300E-02	1.279500E+02	2.2791E+04	-8.9553E+03	0.0000E+00	1	6
1.000000E-01	2.0000E-02	-2.4300E-02	1.387300E+02	2.0366E+04	-7.6404E+03	0.0000E+00	33	6
