ZPLOT2 ASCII
  Measured Data, ZPlot:       3.5f
  Experiment Type:            Sweep Frequency, Control Voltage
  Date:                       11-05-2019
  Time:                       17:07:24
  Open Circuit Potential (V): -0.0065
  Begin User Comments:        0
  End User Comments:          0
  Begin Experiment:           0
    Potential-DC:             0
    Potential-DC Type:        0
    Potential-AC:             20
    Potential-Monitor Type:   0
    Potential-Monitor TargetI:1
    Potential-Monitor Limit:  3000
    Potential-Monitor Error:  25
    Current-DC:               0
    Current-AC:               0.1
    Current-Monitor Type:     0
    Current-Monitor TargetE:  20
    Current-Monitor Limit:    60
    Current-Monitor Error:    25
    vs Freq-Initial:          100000
    vs Freq-Final:            0.1
    vs Freq-Lin/Log Type:     1
    vs Freq-Linear Type:      1
    vs Freq-Linear Interval:  100
    vs Freq-Log Type:         0
    vs Freq-Log Interval:     10
    Harmonics:                3
    PolE-Initial:             0
    PolE-Final:               0.2
    PolE-InitialType:         0
    PolE-FinalType:           0
    PolE-SweepRate:           1
    PolE-SweepRateType:       0
    PolE-DataRate:            5
    PolE-SegmentNo:           2
    PolE-IR:                  0
    AmplE-Initial:            10
    AmplE-Final:              200
    AmplE-SweepRate:          1
    AmplE-DataRate:           5
    AmplE-SegmentNo:          2
    PolI-Initial:             0
    PolI-Vertex:              0.01
    PolI-Final:               0.01
    PolI-SweepRate:           0.1
    PolI-SweepRateType:       0
    PolI-DataRate:            5
    PolI-SegmentNo:           2
    AmplI-Initial:            0.1
    AmplI-Final:              10
    AmplI-SweepRate:          0.1
    AmplI-DataRate:           5
    AmplI-SegmentNo:          2
    vs Time-Freq:             0.001
    vs Time-Harmonic:         1
    vs Time-Total Time:       100
    vs Time-Time Type:        0
    vs Time-Interval:         5
  End Experiment:             0
  Begin Pstat/Gstat:          1287
    Booster Type:             0
    Booster Name:             None
    Pstat Range High:         0
    Pstat Range Low:          0
    Pstat Range Frequency:    6
    Pstat Range Minimum:      0
    Pstat Limit Range:        0
    Pstat Limit Type:         1
    Pstat Bandwidth:          2
    Pstat Use Aux:            0
    Gstat Range:              0
    Gstat Bandwidth:          2
    Filter:                   1
    Error Beep:               0
    Bias Rejection:           1
    Attenuator:               2
    Grounding:                0
    Calibration File
  End Pstat/Gstat:            1287
  Begin Analyzer:             1260
    Z60 Mode:                 3
    Z60 GD Freq-:             5
    Z60 GD Freq+:             5
    Bias Voltage:             0
    Auto Integration Type:    0
    Integration Time Type:    0
    Integration Seconds:      0.2
    Integration Cycles:       1
    Delay Time Type:          1
    Delay Seconds:            0
    Delay Cycles:             0
    Source:                   2
    SourceI:                  1
    Error Beep:               0
    Range V1:                 3
    Coupling V1:              0
    Input V1:                 0
    Outer V1:                 1
    Location V1:              0
    Range V2:                 3
    Coupling V2:              0
    Input V2:                 0
    Outer V2:                 1
    Location V2:              0
    Coupling I:               0
  End Analyzer:               1260
  Begin Information:          Cell Information
    Surface Area:             1
    Density:                  0
    Weight:                   0
    Polarity:                 0
    PolarityI:                0
    Corrosion Unit Type:      0
    Reference Type:           0
    Reference Potential:      0
    User-Defined Potential:   0
    Stern-Geary:              26
  End Information:            Cell Information
  Null Configuration:         0,3,0,1,100000,0.1
  Data Points:                61
  Freq(Hz)	Ampl	Bias	Time(Sec)	Z'(a)	Z''(b)	Aux	Err	Range
End Comments
1.000000E+05	2.0000E-02	-6.5000E-03	4.500000E+00	1.1067E+02	-7.2743E+01	0.0000E+00	0	4
7.943282E+04	2.0000E-02	-6.5000E-03	5.210000E+00	1.3617E+02	-6.0926E+01	0.0000E+00	0	4
6.309573E+04	2.0000E-02	-6.5000E-03	9.190000E+00	1.5782E+02	-4.7419E+01	0.0000E+00	1	4
5.011872E+04	2.0000E-02	-6.5000E-03	9.890000E+00	8.9162E+01	-5.1144E+01	0.0000E+00	1	4
3.981072E+04	2.0000E-02	-6.5000E-03	1.059000E+01	1.3947E+02	-1.1272E+02	0.0000E+00	1	4
3.162278E+04	2.0000E-02	-6.5000E-03	1.129000E+01	1.6403E+02	-1.3422E+02	0.0000E+00	1	4
2.511886E+04	2.0000E-02	-6.5000E-03	1.197000E+01	1.9104E+02	-1.4566E+02	0.0000E+00	1	4
1.995262E+04	2.0000E-02	-6.5000E-03	1.387000E+01	2.1158E+02	-1.4172E+02	0.0000E+00	1	4
1.584893E+04	2.0000E-02	-6.5000E-03	1.457000E+01	2.4647E+02	-1.5642E+02	0.0000E+00	1	4
1.258925E+04	2.0000E-02	-6.5000E-03	1.528000E+01	2.6100E+02	-1.5118E+02	0.0000E+00	1	4
1.000000E+04	2.0000E-02	-6.5000E-03	1.596000E+01	2.6544E+02	-1.8279E+02	0.0000E+00	1	4
7.943282E+03	2.0000E-02	-6.5000E-03	1.667000E+01	3.0187E+02	-1.6399E+02	0.0000E+00	1	4
6.309573E+03	2.0000E-02	-6.5000E-03	1.738000E+01	3.4649E+02	-2.0347E+02	0.0000E+00	1	4
5.011872E+03	2.0000E-02	-6.5000E-03	1.809000E+01	3.5812E+02	-1.8545E+02	0.0000E+00	1	4
3.981072E+03	2.0000E-02	-6.5000E-03	2.008000E+01	3.7964E+02	-2.0272E+02	0.0000E+00	1	4
3.162278E+03	2.0000E-02	-6.5000E-03	2.077000E+01	4.1590E+02	-2.1050E+02	0.0000E+00	1	4
2.511886E+03	2.0000E-02	-6.5000E-03	2.148000E+01	4.5359E+02	-2.2220E+02	0.0000E+00	1	4
1.995262E+03	2.0000E-02	-6.5000E-03	2.216000E+01	4.7633E+02	-2.4171E+02	0.0000E+00	1	4
1.584893E+03	2.0000E-02	-6.5000E-03	2.300000E+01	5.0851E+02	-2.3955E+02	0.0000E+00	1	4
1.258925E+03	2.0000E-02	-6.5000E-03	2.382000E+01	4.7743E+02	-2.5717E+02	0.0000E+00	1	4
1.000000E+03	2.0000E-02	-6.5000E-03	2.557000E+01	5.7467E+02	-2.7591E+02	0.0000E+00	1	4
7.943282E+02	2.0000E-02	-6.5000E-03	2.639000E+01	6.1879E+02	-2.6138E+02	0.0000E+00	1	4
6.309573E+02	2.0000E-02	-6.5000E-03	2.721000E+01	6.4068E+02	-3.0390E+02	0.0000E+00	1	4
5.011872E+02	2.0000E-02	-6.5000E-03	2.803000E+01	7.1203E+02	-3.5688E+02	0.0000E+00	1	4
3.981072E+02	2.0000E-02	-6.5000E-03	3.061000E+01	7.8755E+02	-3.8465E+02	0.0000E+00	1	5
3.162278E+02	2.0000E-02	-6.5000E-03	3.154000E+01	7.6859E+02	-3.3961E+02	0.0000E+00	33	5
2.511886E+02	2.0000E-02	-6.5000E-03	3.399000E+01	8.3218E+02	-4.0305E+02	0.0000E+00	33	5
1.995262E+02	2.0000E-02	-6.5000E-03	3.468000E+01	9.4119E+02	-4.3039E+02	0.0000E+00	1	5
1.584893E+02	2.0000E-02	-6.5000E-03	3.540000E+01	1.1642E+03	-4.0509E+02	0.0000E+00	1	5
1.258925E+02	2.0000E-02	-6.5000E-03	3.610000E+01	6.5034E+02	-6.9134E+02	0.0000E+00	1	5
1.000000E+02	2.0000E-02	-6.5000E-03	3.681000E+01	1.1220E+03	-5.9136E+02	0.0000E+00	1	5
7.943282E+01	2.0000E-02	-6.5000E-03	3.867000E+01	1.1331E+03	-5.9616E+02	0.0000E+00	1	5
6.309573E+01	2.0000E-02	-6.5000E-03	3.937000E+01	6.1987E+02	-2.0523E+03	0.0000E+00	33	5
5.011872E+01	2.0000E-02	-6.5000E-03	4.008000E+01	1.7023E+03	-5.3550E+02	0.0000E+00	1	5
3.981072E+01	2.0000E-02	-6.5000E-03	4.079000E+01	1.5596E+03	-8.5476E+02	0.0000E+00	33	5
3.162278E+01	2.0000E-02	-6.5000E-03	4.147000E+01	1.8130E+03	-1.0360E+03	0.0000E+00	33	5
2.511886E+01	2.0000E-02	-6.5000E-03	4.231000E+01	1.5891E+03	-1.0079E+03	0.0000E+00	1	5
1.995262E+01	2.0000E-02	-6.5000E-03	4.301000E+01	1.7829E+03	-1.1381E+03	0.0000E+00	1	5
1.584893E+01	2.0000E-02	-6.5000E-03	4.477000E+01	1.9110E+03	-1.1909E+03	0.0000E+00	33	5
1.258925E+01	2.0000E-02	-6.5000E-03	4.558000E+01	2.5553E+03	-1.0278E+03	0.0000E+00	33	5
1.000000E+01	2.0000E-02	-6.5000E-03	4.641000E+01	2.1262E+03	-1.5378E+03	0.0000E+00	1	5
7.943280E+00	2.0000E-02	-6.5000E-03	4.722000E+01	2.1373E+03	-1.8029E+03	0.0000E+00	1	5
6.309570E+00	2.0000E-02	-6.5000E-03	4.828000E+01	2.4107E+03	-2.1032E+03	0.0000E+00	1	5
5.011870E+00	2.0000E-02	-6.5000E-03	4.909000E+01	2.6103E+03	-2.4600E+03	0.0000E+00	1	5
3.981070E+00	2.0000E-02	-6.5000E-03	5.003000E+01	2.4649E+03	-2.8922E+03	0.0000E+00	33	5
3.162280E+00	2.0000E-02	-6.5000E-03	5.085000E+01	3.5589E+03	-3.4073E+03	0.0000E+00	1	5
2.511890E+00	2.0000E-02	-6.5000E-03	5.190000E+01	4.4388E+03	-3.9481E+03	0.0000E+00	1	5
1.995260E+00	2.0000E-02	-6.5000E-03	5.296000E+01	4.3284E+03	-4.5610E+03	0.0000E+00	33	5
1.584890E+00	2.0000E-02	-6.5000E-03	5.623000E+01	7.4136E+03	-5.7927E+03	0.0000E+00	32	6
1.258930E+00	2.0000E-02	-6.5000E-03	5.752000E+01	8.6429E+03	-5.7763E+03	0.0000E+00	33	6
1.000000E+00	2.0000E-02	-6.5000E-03	5.903000E+01	9.8646E+03	-5.7177E+03	0.0000E+00	1	6
7.943300E-01	2.0000E-02	-6.5000E-03	6.077000E+01	1.0434E+04	-6.5354E+03	0.0000E+00	33	6
6.309600E-01	2.0000E-02	-6.5000E-03	6.314000E+01	1.1628E+04	-5.7612E+03	0.0000E+00	33	6
5.011900E-01	2.0000E-02	-6.5000E-03	6.570000E+01	1.2363E+04	-5.6012E+03	0.0000E+00	33	6
3.981100E-01	2.0000E-02	-6.5000E-03	6.875000E+01	1.3378E+04	-6.2478E+03	0.0000E+00	33	6
3.162300E-01	2.0000E-02	-6.5000E-03	7.248000E+01	1.3709E+04	-5.6821E+03	0.0000E+00	33	6
2.511900E-01	2.0000E-02	-6.5000E-03	7.692000E+01	1.4653E+04	-5.9005E+03	0.0000E+00	33	6
1.995300E-01	2.0000E-02	-6.5000E-03	8.243000E+01	1.5722E+04	-6.3696E+03	0.0000E+00	33	6
1.584900E-01	2.0000E-02	-6.5000E-03	8.926000E+01	1.6683E+04	-6.3170E+03	0.0000E+00	33	6
1.258900E-01	2.0000E-02	-6.5000E-03	9.770000E+01	1.8144E+04	-6.9554E+03	0.0000E+00	33	6
1.000000E-01	2.0000E-02	-6.5000E-03	1.083600E+02	1.9168E+04	-6.5913E+03	0.0000E+00	33	6
