ZPLOT2 ASCII
  Measured Data, ZPlot:       3.5f
  Experiment Type:            Sweep Frequency, Control Voltage
  Date:                       11-05-2019
  Time:                       17:50:31
  Open Circuit Potential (V): -0.0456
  Begin User Comments:        0
  End User Comments:          0
  Begin Experiment:           0
    Potential-DC:             0
    Potential-DC Type:        0
    Potential-AC:             20
    Potential-Monitor Type:   0
    Potential-Monitor TargetI:1
    Potential-Monitor Limit:  3000
    Potential-Monitor Error:  25
    Current-DC:               0
    Current-AC:               0.1
    Current-Monitor Type:     0
    Current-Monitor TargetE:  20
    Current-Monitor Limit:    60
    Current-Monitor Error:    25
    vs Freq-Initial:          3200000
    vs Freq-Final:            0.1
    vs Freq-Lin/Log Type:     1
    vs Freq-Linear Type:      1
    vs Freq-Linear Interval:  100
    vs Freq-Log Type:         0
    vs Freq-Log Interval:     10
    Harmonics:                3
    PolE-Initial:             0
    PolE-Final:               0.2
    PolE-InitialType:         0
    PolE-FinalType:           0
    PolE-SweepRate:           1
    PolE-SweepRateType:       0
    PolE-DataRate:            5
    PolE-SegmentNo:           2
    PolE-IR:                  0
    AmplE-Initial:            10
    AmplE-Final:              200
    AmplE-SweepRate:          1
    AmplE-DataRate:           5
    AmplE-SegmentNo:          2
    PolI-Initial:             0
    PolI-Vertex:              0.01
    PolI-Final:               0.01
    PolI-SweepRate:           0.1
    PolI-SweepRateType:       0
    PolI-DataRate:            5
    PolI-SegmentNo:           2
    AmplI-Initial:            0.1
    AmplI-Final:              10
    AmplI-SweepRate:          0.1
    AmplI-DataRate:           5
    AmplI-SegmentNo:          2
    vs Time-Freq:             0.001
    vs Time-Harmonic:         1
    vs Time-Total Time:       100
    vs Time-Time Type:        0
    vs Time-Interval:         5
  End Experiment:             0
  Begin Pstat/Gstat:          1287
    Booster Type:             0
    Booster Name:             None
    Pstat Range High:         0
    Pstat Range Low:          0
    Pstat Range Frequency:    6
    Pstat Range Minimum:      0
    Pstat Limit Range:        0
    Pstat Limit Type:         1
    Pstat Bandwidth:          2
    Pstat Use Aux:            0
    Gstat Range:              0
    Gstat Bandwidth:          2
    Filter:                   1
    Error Beep:               0
    Bias Rejection:           1
    Attenuator:               2
    Grounding:                0
    Calibration File
  End Pstat/Gstat:            1287
  Begin Analyzer:             1260
    Z60 Mode:                 3
    Z60 GD Freq-:             5
    Z60 GD Freq+:             5
    Bias Voltage:             0
    Auto Integration Type:    0
    Integration Time Type:    0
    Integration Seconds:      0.2
    Integration Cycles:       1
    Delay Time Type:          1
    Delay Seconds:            0
    Delay Cycles:             0
    Source:                   2
    SourceI:                  1
    Error Beep:               0
    Range V1:                 0
    Coupling V1:              0
    Input V1:                 0
    Outer V1:                 1
    Location V1:              0
    Range V2:                 0
    Coupling V2:              0
    Input V2:                 0
    Outer V2:                 1
    Location V2:              0
    Coupling I:               0
  End Analyzer:               1260
  Begin Information:          Cell Information
    Surface Area:             1
    Density:                  0
    Weight:                   0
    Polarity:                 0
    PolarityI:                0
    Corrosion Unit Type:      0
    Reference Type:           0
    Reference Potential:      0
    User-Defined Potential:   0
    Stern-Geary:              26
  End Information:            Cell Information
  Null Configuration:         0,3,0,1,3200000,0.1
  Data Points:                69
  Freq(Hz)	Ampl	Bias	Time(Sec)	Z'(a)	Z''(b)	Aux	Err	Range
End Comments
3.200000E+06	2.0000E-02	-4.5600E-02	6.400000E+00	2.4455E+02	1.3287E+02	0.0000E+00	0	4
2.541851E+06	2.0000E-02	-4.5600E-02	7.470000E+00	2.9790E+02	4.8231E+02	0.0000E+00	1	4
2.019064E+06	2.0000E-02	-4.5600E-02	8.280000E+00	4.3421E+01	7.7177E+01	0.0000E+00	1	4
1.603799E+06	2.0000E-02	-4.5600E-02	9.220000E+00	-2.5713E+01	-3.2475E+01	0.0000E+00	1	4
1.273943E+06	2.0000E-02	-4.5600E-02	1.016000E+01	-6.6181E+01	-6.2816E+01	0.0000E+00	1	4
1.011929E+06	2.0000E-02	-4.5600E-02	1.107000E+01	-1.7291E+00	-6.6400E+01	0.0000E+00	1	4
8.038037E+05	2.0000E-02	-4.5600E-02	1.201000E+01	2.5179E+01	-7.0024E+01	0.0000E+00	1	4
6.384839E+05	2.0000E-02	-4.5600E-02	1.471000E+01	4.1037E+01	-7.0679E+01	0.0000E+00	1	4
5.071658E+05	2.0000E-02	-4.5600E-02	1.553000E+01	6.0609E+01	-6.9224E+01	0.0000E+00	1	4
4.028561E+05	2.0000E-02	-4.5600E-02	1.648000E+01	7.5055E+01	-6.8174E+01	0.0000E+00	1	4
3.200000E+05	2.0000E-02	-4.5600E-02	1.741000E+01	8.3669E+01	-6.2705E+01	0.0000E+00	1	4
2.541850E+05	2.0000E-02	-4.5600E-02	1.824000E+01	9.0808E+01	-6.0594E+01	0.0000E+00	1	4
2.019063E+05	2.0000E-02	-4.5600E-02	1.917000E+01	9.8407E+01	-6.2518E+01	0.0000E+00	1	4
1.603799E+05	2.0000E-02	-4.5600E-02	2.009000E+01	1.0447E+02	-6.3335E+01	0.0000E+00	1	4
1.273943E+05	2.0000E-02	-4.5600E-02	2.103000E+01	1.1337E+02	-6.5706E+01	0.0000E+00	1	4
1.011929E+05	2.0000E-02	-4.5600E-02	2.197000E+01	1.2038E+02	-6.3782E+01	0.0000E+00	1	4
8.038037E+04	2.0000E-02	-4.5600E-02	2.290000E+01	1.3347E+02	-6.4834E+01	0.0000E+00	1	4
6.384839E+04	2.0000E-02	-4.5600E-02	2.725000E+01	3.9554E+01	-1.6879E+02	0.0000E+00	1	4
5.071658E+04	2.0000E-02	-4.5600E-02	2.818000E+01	9.6383E+01	-6.3191E+01	0.0000E+00	1	4
4.028561E+04	2.0000E-02	-4.5600E-02	2.910000E+01	1.2990E+02	-9.9692E+01	0.0000E+00	1	4
3.200000E+04	2.0000E-02	-4.5600E-02	3.004000E+01	1.6358E+02	-1.2849E+02	0.0000E+00	1	4
2.541850E+04	2.0000E-02	-4.5600E-02	3.098000E+01	1.9072E+02	-1.3493E+02	0.0000E+00	1	4
2.019063E+04	2.0000E-02	-4.5600E-02	3.204000E+01	2.1089E+02	-1.3461E+02	0.0000E+00	1	4
1.603799E+04	2.0000E-02	-4.5600E-02	3.309000E+01	2.2076E+02	-1.3656E+02	0.0000E+00	1	4
1.273943E+04	2.0000E-02	-4.5600E-02	3.427000E+01	2.5393E+02	-1.4657E+02	0.0000E+00	1	4
1.011929E+04	2.0000E-02	-4.5600E-02	3.532000E+01	2.8246E+02	-1.5115E+02	0.0000E+00	1	4
8.038037E+03	2.0000E-02	-4.5600E-02	3.638000E+01	2.8040E+02	-3.2827E+02	0.0000E+00	1	4
6.384839E+03	2.0000E-02	-4.5600E-02	3.731000E+01	3.3425E+02	-1.6453E+02	0.0000E+00	1	4
5.071658E+03	2.0000E-02	-4.5600E-02	3.824000E+01	3.5053E+02	-1.6372E+02	0.0000E+00	1	4
4.028561E+03	2.0000E-02	-4.5600E-02	3.918000E+01	3.7002E+02	-1.6762E+02	0.0000E+00	1	4
3.200000E+03	2.0000E-02	-4.5600E-02	4.012000E+01	3.9587E+02	-1.8222E+02	0.0000E+00	1	4
2.541850E+03	2.0000E-02	-4.5600E-02	4.116000E+01	4.1152E+02	-1.8807E+02	0.0000E+00	1	4
2.019063E+03	2.0000E-02	-4.5600E-02	4.211000E+01	4.4144E+02	-1.7386E+02	0.0000E+00	1	4
1.603799E+03	2.0000E-02	-4.5600E-02	4.304000E+01	4.7991E+02	-1.8672E+02	0.0000E+00	1	4
1.273943E+03	2.0000E-02	-4.5600E-02	4.410000E+01	4.9463E+02	-1.9679E+02	0.0000E+00	1	4
1.011929E+03	2.0000E-02	-4.5600E-02	4.503000E+01	5.2700E+02	-2.0737E+02	0.0000E+00	1	4
8.038037E+02	2.0000E-02	-4.5600E-02	4.595000E+01	4.6664E+02	-2.0852E+02	0.0000E+00	1	4
6.384839E+02	2.0000E-02	-4.5600E-02	4.688000E+01	6.0409E+02	-2.1545E+02	0.0000E+00	1	4
5.071658E+02	2.0000E-02	-4.5600E-02	4.783000E+01	5.9069E+02	-2.1312E+02	0.0000E+00	1	4
4.028561E+02	2.0000E-02	-4.5600E-02	4.878000E+01	6.4283E+02	-2.4576E+02	0.0000E+00	1	4
3.200000E+02	2.0000E-02	-4.5600E-02	4.984000E+01	4.2646E+02	-3.9699E+02	0.0000E+00	1	4
2.541850E+02	2.0000E-02	-4.5600E-02	5.241000E+01	7.2029E+02	-2.6998E+02	0.0000E+00	1	4
2.019064E+02	2.0000E-02	-4.5600E-02	5.335000E+01	6.8315E+02	-2.1648E+02	0.0000E+00	1	4
1.603799E+02	2.0000E-02	-4.5600E-02	5.428000E+01	7.0549E+02	-3.0779E+02	0.0000E+00	1	4
1.273943E+02	2.0000E-02	-4.5600E-02	5.522000E+01	6.4842E+02	-1.1197E+02	0.0000E+00	1	4
1.011929E+02	2.0000E-02	-4.5600E-02	5.814000E+01	9.0577E+02	-3.0734E+02	0.0000E+00	1	5
8.038037E+01	2.0000E-02	-4.5600E-02	5.908000E+01	7.8527E+02	-4.4691E+02	0.0000E+00	33	5
6.384839E+01	2.0000E-02	-4.5600E-02	6.001000E+01	2.5664E+03	-1.0296E+03	0.0000E+00	33	5
5.071658E+01	2.0000E-02	-4.5600E-02	6.095000E+01	1.0619E+03	-5.8167E+02	0.0000E+00	33	5
4.028561E+01	2.0000E-02	-4.5600E-02	6.189000E+01	9.1365E+02	-6.4882E+02	0.0000E+00	1	5
3.200000E+01	2.0000E-02	-4.5600E-02	6.282000E+01	1.2440E+03	-7.0354E+02	0.0000E+00	33	5
2.541850E+01	2.0000E-02	-4.5600E-02	6.388000E+01	1.3253E+03	-6.8095E+02	0.0000E+00	33	5
2.019063E+01	2.0000E-02	-4.5600E-02	6.492000E+01	1.4512E+03	-7.2726E+02	0.0000E+00	33	5
1.603799E+01	2.0000E-02	-4.5600E-02	6.597000E+01	1.4617E+03	-9.5434E+02	0.0000E+00	1	5
1.273943E+01	2.0000E-02	-4.5600E-02	6.703000E+01	1.3697E+03	-1.0904E+03	0.0000E+00	33	5
1.011929E+01	2.0000E-02	-4.5600E-02	6.820000E+01	1.1856E+03	-1.3216E+03	0.0000E+00	33	5
8.038040E+00	2.0000E-02	-4.5600E-02	6.925000E+01	1.3143E+03	-1.5127E+03	0.0000E+00	33	5
6.384840E+00	2.0000E-02	-4.5600E-02	7.043000E+01	1.8678E+03	-1.8440E+03	0.0000E+00	1	5
5.071660E+00	2.0000E-02	-4.5600E-02	7.171000E+01	1.5475E+03	-2.1618E+03	0.0000E+00	33	5
4.028560E+00	2.0000E-02	-4.5600E-02	7.277000E+01	1.6036E+03	-2.4800E+03	0.0000E+00	33	5
3.200000E+00	2.0000E-02	-4.5600E-02	7.394000E+01	2.9986E+03	-3.3346E+03	0.0000E+00	33	5
2.541850E+00	2.0000E-02	-4.5600E-02	7.533000E+01	3.5642E+03	-3.9337E+03	0.0000E+00	1	5
2.019060E+00	2.0000E-02	-4.5600E-02	7.675000E+01	4.2628E+03	-4.6183E+03	0.0000E+00	1	5
1.603800E+00	2.0000E-02	-4.5600E-02	7.815000E+01	3.1071E+03	-5.8959E+03	0.0000E+00	33	5
1.273940E+00	2.0000E-02	-4.5600E-02	7.968000E+01	4.8243E+03	-6.0147E+03	0.0000E+00	33	5
1.011930E+00	2.0000E-02	-4.5600E-02	8.413000E+01	9.4559E+01	-8.5873E+03	0.0000E+00	32	6
8.038000E-01	2.0000E-02	-4.5600E-02	8.610000E+01	1.0722E+04	-8.9739E+03	0.0000E+00	33	6
6.384800E-01	2.0000E-02	-4.5600E-02	8.951000E+01	1.2868E+04	-1.0522E+04	0.0000E+00	33	6
5.071700E-01	2.0000E-02	-4.5600E-02	9.218000E+01	1.5085E+04	-1.1540E+04	0.0000E+00	33	6
