ZPLOT2 ASCII
  Measured Data, ZPlot:       3.5f
  Experiment Type:            Sweep Frequency, Control Voltage
  Date:                       11-05-2019
  Time:                       17:57:02
  Open Circuit Potential (V): -0.0058
  Begin User Comments:        0
  End User Comments:          0
  Begin Experiment:           0
    Potential-DC:             0
    Potential-DC Type:        0
    Potential-AC:             40
    Potential-Monitor Type:   0
    Potential-Monitor TargetI:1
    Potential-Monitor Limit:  3000
    Potential-Monitor Error:  25
    Current-DC:               0
    Current-AC:               0.1
    Current-Monitor Type:     0
    Current-Monitor TargetE:  20
    Current-Monitor Limit:    60
    Current-Monitor Error:    25
    vs Freq-Initial:          1000000
    vs Freq-Final:            0.1
    vs Freq-Lin/Log Type:     1
    vs Freq-Linear Type:      1
    vs Freq-Linear Interval:  100
    vs Freq-Log Type:         0
    vs Freq-Log Interval:     10
    Harmonics:                3
    PolE-Initial:             0
    PolE-Final:               0.2
    PolE-InitialType:         0
    PolE-FinalType:           0
    PolE-SweepRate:           1
    PolE-SweepRateType:       0
    PolE-DataRate:            5
    PolE-SegmentNo:           2
    PolE-IR:                  0
    AmplE-Initial:            10
    AmplE-Final:              200
    AmplE-SweepRate:          1
    AmplE-DataRate:           5
    AmplE-SegmentNo:          2
    PolI-Initial:             0
    PolI-Vertex:              0.01
    PolI-Final:               0.01
    PolI-SweepRate:           0.1
    PolI-SweepRateType:       0
    PolI-DataRate:            5
    PolI-SegmentNo:           2
    AmplI-Initial:            0.1
    AmplI-Final:              10
    AmplI-SweepRate:          0.1
    AmplI-DataRate:           5
    AmplI-SegmentNo:          2
    vs Time-Freq:             0.001
    vs Time-Harmonic:         1
    vs Time-Total Time:       100
    vs Time-Time Type:        0
    vs Time-Interval:         5
  End Experiment:             0
  Begin Pstat/Gstat:          1287
    Booster Type:             0
    Booster Name:             None
    Pstat Range High:         0
    Pstat Range Low:          0
    Pstat Range Frequency:    50
    Pstat Range Minimum:      0
    Pstat Limit Range:        0
    Pstat Limit Type:         1
    Pstat Bandwidth:          2
    Pstat Use Aux:            0
    Gstat Range:              0
    Gstat Bandwidth:          2
    Filter:                   1
    Error Beep:               0
    Bias Rejection:           1
    Attenuator:               0
    Grounding:                0
    Calibration File
  End Pstat/Gstat:            1287
  Begin Analyzer:             1260
    Z60 Mode:                 3
    Z60 GD Freq-:             5
    Z60 GD Freq+:             5
    Bias Voltage:             0
    Auto Integration Type:    0
    Integration Time Type:    0
    Integration Seconds:      0.2
    Integration Cycles:       1
    Delay Time Type:          1
    Delay Seconds:            0
    Delay Cycles:             0
    Source:                   2
    SourceI:                  1
    Error Beep:               0
    Range V1:                 0
    Coupling V1:              0
    Input V1:                 0
    Outer V1:                 1
    Location V1:              0
    Range V2:                 0
    Coupling V2:              0
    Input V2:                 0
    Outer V2:                 1
    Location V2:              0
    Coupling I:               0
  End Analyzer:               1260
  Begin Information:          Cell Information
    Surface Area:             1
    Density:                  0
    Weight:                   0
    Polarity:                 0
    PolarityI:                0
    Corrosion Unit Type:      0
    Reference Type:           0
    Reference Potential:      0
    User-Defined Potential:   0
    Stern-Geary:              26
  End Information:            Cell Information
  Null Configuration:         0,3,0,1,1000000,0.1
  Data Points:                71
  Freq(Hz)	Ampl	Bias	Time(Sec)	Z'(a)	Z''(b)	Aux	Err	Range
End Comments
1.000000E+06	4.0000E-02	-5.8000E-03	4.460000E+00	3.9934E+01	-4.8416E+01	0.0000E+00	0	3
7.943282E+05	4.0000E-02	-5.8000E-03	5.400000E+00	5.6990E+01	-5.5509E+01	0.0000E+00	1	3
6.309573E+05	4.0000E-02	-5.8000E-03	7.980000E+00	6.4718E+01	-5.2710E+01	0.0000E+00	1	3
5.011872E+05	4.0000E-02	-5.8000E-03	8.910000E+00	7.3332E+01	-5.3620E+01	0.0000E+00	1	3
3.981072E+05	4.0000E-02	-5.8000E-03	9.720000E+00	8.0710E+01	-5.3981E+01	0.0000E+00	1	3
3.162278E+05	4.0000E-02	-5.8000E-03	1.066000E+01	8.7619E+01	-5.3632E+01	0.0000E+00	1	3
2.511886E+05	4.0000E-02	-5.8000E-03	1.149000E+01	9.3232E+01	-5.4325E+01	0.0000E+00	1	3
1.995262E+05	4.0000E-02	-5.8000E-03	1.242000E+01	9.7715E+01	-5.7256E+01	0.0000E+00	1	3
1.584893E+05	4.0000E-02	-5.8000E-03	1.335000E+01	1.0596E+02	-6.0366E+01	0.0000E+00	1	3
1.258925E+05	4.0000E-02	-5.8000E-03	1.417000E+01	1.1458E+02	-6.2540E+01	0.0000E+00	1	3
1.000000E+05	4.0000E-02	-5.8000E-03	1.500000E+01	1.3488E+02	-6.2669E+01	0.0000E+00	1	3
7.943282E+04	4.0000E-02	-5.8000E-03	1.593000E+01	1.3370E+02	-6.6958E+01	0.0000E+00	1	3
6.309573E+04	4.0000E-02	-5.8000E-03	2.014000E+01	1.3729E+02	-7.2958E+01	0.0000E+00	1	3
5.011872E+04	4.0000E-02	-5.8000E-03	2.108000E+01	1.2300E+02	-7.4918E+01	0.0000E+00	1	3
3.981072E+04	4.0000E-02	-5.8000E-03	2.398000E+01	1.3698E+02	-1.2866E+02	0.0000E+00	1	4
3.162278E+04	4.0000E-02	-5.8000E-03	2.492000E+01	1.6212E+02	-1.2861E+02	0.0000E+00	1	4
2.511886E+04	4.0000E-02	-5.8000E-03	2.599000E+01	1.8985E+02	-1.3613E+02	0.0000E+00	1	4
1.995262E+04	4.0000E-02	-5.8000E-03	2.693000E+01	2.1277E+02	-1.4071E+02	0.0000E+00	1	4
1.584893E+04	4.0000E-02	-5.8000E-03	2.797000E+01	2.3101E+02	-1.5307E+02	0.0000E+00	1	4
1.258925E+04	4.0000E-02	-5.8000E-03	2.891000E+01	2.5269E+02	-1.5667E+02	0.0000E+00	1	4
1.000000E+04	4.0000E-02	-5.8000E-03	3.009000E+01	2.7878E+02	-1.6717E+02	0.0000E+00	1	4
7.943282E+03	4.0000E-02	-5.8000E-03	3.103000E+01	3.0385E+02	-1.7227E+02	0.0000E+00	1	4
6.309573E+03	4.0000E-02	-5.8000E-03	3.196000E+01	3.2862E+02	-1.7947E+02	0.0000E+00	1	4
5.011872E+03	4.0000E-02	-5.8000E-03	3.302000E+01	3.5453E+02	-1.9039E+02	0.0000E+00	1	4
3.981072E+03	4.0000E-02	-5.8000E-03	3.395000E+01	3.8704E+02	-1.9336E+02	0.0000E+00	1	4
3.162278E+03	4.0000E-02	-5.8000E-03	3.501000E+01	4.1306E+02	-2.0635E+02	0.0000E+00	1	4
2.511886E+03	4.0000E-02	-5.8000E-03	3.595000E+01	4.4030E+02	-2.2006E+02	0.0000E+00	1	4
1.995262E+03	4.0000E-02	-5.8000E-03	3.688000E+01	4.6206E+02	-2.2744E+02	0.0000E+00	1	4
1.584893E+03	4.0000E-02	-5.8000E-03	3.780000E+01	4.9680E+02	-2.4500E+02	0.0000E+00	1	4
1.258925E+03	4.0000E-02	-5.8000E-03	3.873000E+01	5.2798E+02	-2.6730E+02	0.0000E+00	1	4
1.000000E+03	4.0000E-02	-5.8000E-03	3.967000E+01	5.8093E+02	-2.8848E+02	0.0000E+00	1	4
7.943282E+02	4.0000E-02	-5.8000E-03	4.063000E+01	5.9864E+02	-2.9158E+02	0.0000E+00	1	4
6.309573E+02	4.0000E-02	-5.8000E-03	4.156000E+01	6.4664E+02	-2.9351E+02	0.0000E+00	1	4
5.011872E+02	4.0000E-02	-5.8000E-03	4.250000E+01	6.8896E+02	-3.2915E+02	0.0000E+00	1	4
3.981072E+02	4.0000E-02	-5.8000E-03	4.344000E+01	7.4193E+02	-3.3633E+02	0.0000E+00	1	4
3.162278E+02	4.0000E-02	-5.8000E-03	4.447000E+01	8.3034E+02	-3.7543E+02	0.0000E+00	1	4
2.511886E+02	4.0000E-02	-5.8000E-03	4.707000E+01	8.2832E+02	-4.1507E+02	0.0000E+00	1	4
1.995262E+02	4.0000E-02	-5.8000E-03	4.800000E+01	8.7823E+02	-4.5066E+02	0.0000E+00	1	4
1.584893E+02	4.0000E-02	-5.8000E-03	4.892000E+01	8.6644E+02	-4.8621E+02	0.0000E+00	1	4
1.258925E+02	4.0000E-02	-5.8000E-03	4.985000E+01	1.1756E+03	-3.5417E+02	0.0000E+00	1	4
1.000000E+02	4.0000E-02	-5.8000E-03	5.069000E+01	1.0647E+03	-5.4310E+02	0.0000E+00	1	4
7.943282E+01	4.0000E-02	-5.8000E-03	5.162000E+01	1.1053E+03	-5.6650E+02	0.0000E+00	1	4
6.309573E+01	4.0000E-02	-5.8000E-03	5.443000E+01	1.1683E+03	-3.0122E+02	0.0000E+00	32	5
5.011872E+01	4.0000E-02	-5.8000E-03	5.548000E+01	1.4825E+03	-6.6019E+02	0.0000E+00	33	5
3.981072E+01	4.0000E-02	-5.8000E-03	5.642000E+01	1.4411E+03	-8.1288E+02	0.0000E+00	1	5
3.162278E+01	4.0000E-02	-5.8000E-03	5.735000E+01	1.5907E+03	-6.5144E+02	0.0000E+00	33	5
2.511886E+01	4.0000E-02	-5.8000E-03	5.841000E+01	1.5913E+03	-1.1287E+03	0.0000E+00	33	5
1.995262E+01	4.0000E-02	-5.8000E-03	5.935000E+01	1.7648E+03	-1.1054E+03	0.0000E+00	1	5
1.584893E+01	4.0000E-02	-5.8000E-03	6.039000E+01	1.8362E+03	-1.2011E+03	0.0000E+00	1	5
1.258925E+01	4.0000E-02	-5.8000E-03	6.132000E+01	1.8518E+03	-1.3867E+03	0.0000E+00	33	5
1.000000E+01	4.0000E-02	-5.8000E-03	6.226000E+01	2.0886E+03	-1.5151E+03	0.0000E+00	1	5
7.943280E+00	4.0000E-02	-5.8000E-03	6.332000E+01	2.1724E+03	-1.7626E+03	0.0000E+00	33	5
6.309570E+00	4.0000E-02	-5.8000E-03	6.438000E+01	2.3573E+03	-2.0567E+03	0.0000E+00	33	5
5.011870E+00	4.0000E-02	-5.8000E-03	6.556000E+01	2.5746E+03	-2.4124E+03	0.0000E+00	1	5
3.981070E+00	4.0000E-02	-5.8000E-03	6.659000E+01	2.8728E+03	-2.8220E+03	0.0000E+00	1	5
3.162280E+00	4.0000E-02	-5.8000E-03	6.777000E+01	3.1283E+03	-3.3014E+03	0.0000E+00	1	5
2.511890E+00	4.0000E-02	-5.8000E-03	6.928000E+01	3.2171E+03	-3.7863E+03	0.0000E+00	1	5
1.995260E+00	4.0000E-02	-5.8000E-03	7.047000E+01	4.3274E+03	-4.4869E+03	0.0000E+00	33	5
1.584890E+00	4.0000E-02	-5.8000E-03	7.187000E+01	5.2583E+03	-4.7891E+03	0.0000E+00	33	5
1.258930E+00	4.0000E-02	-5.8000E-03	7.339000E+01	5.7489E+03	-5.2681E+03	0.0000E+00	33	5
1.000000E+00	4.0000E-02	-5.8000E-03	7.514000E+01	6.8924E+03	-5.7391E+03	0.0000E+00	33	5
7.943300E-01	4.0000E-02	-5.8000E-03	7.714000E+01	7.4379E+03	-5.8065E+03	0.0000E+00	1	5
6.309600E-01	4.0000E-02	-5.8000E-03	8.088000E+01	8.6982E+03	-6.3047E+03	0.0000E+00	1	5
5.011900E-01	4.0000E-02	-5.8000E-03	8.357000E+01	9.9704E+03	-6.4079E+03	0.0000E+00	1	5
3.981100E-01	4.0000E-02	-5.8000E-03	8.685000E+01	1.1214E+04	-7.1465E+03	0.0000E+00	33	5
3.162300E-01	4.0000E-02	-5.8000E-03	9.084000E+01	1.1678E+04	-6.4515E+03	0.0000E+00	33	5
2.511900E-01	4.0000E-02	-5.8000E-03	9.563000E+01	1.3020E+04	-6.3656E+03	0.0000E+00	1	5
1.995300E-01	4.0000E-02	-5.8000E-03	1.014700E+02	1.3930E+04	-6.5264E+03	0.0000E+00	33	5
1.584900E-01	4.0000E-02	-5.8000E-03	1.171600E+02	1.8015E+04	-6.6777E+03	0.0000E+00	33	6
1.258900E-01	4.0000E-02	-5.8000E-03	1.259400E+02	1.8524E+04	-7.0145E+03	0.0000E+00	33	6
1.000000E-01	4.0000E-02	-5.8000E-03	1.367100E+02	1.9485E+04	-7.1854E+03	0.0000E+00	33	6
