ZPLOT2 ASCII
  Measured Data, ZPlot:       3.5f
  Experiment Type:            Sweep Frequency, Control Voltage
  Date:                       11-04-2019
  Time:                       16:02:23
  Open Circuit Potential (V): 0.0025
  Begin User Comments:        0
  End User Comments:          0
  Begin Experiment:           0
    Potential-DC:             0
    Potential-DC Type:        0
    Potential-AC:             20
    Potential-Monitor Type:   0
    Potential-Monitor TargetI:1
    Potential-Monitor Limit:  3000
    Potential-Monitor Error:  25
    Current-DC:               0
    Current-AC:               0.1
    Current-Monitor Type:     0
    Current-Monitor TargetE:  20
    Current-Monitor Limit:    60
    Current-Monitor Error:    25
    vs Freq-Initial:          3200000
    vs Freq-Final:            0.1
    vs Freq-Lin/Log Type:     1
    vs Freq-Linear Type:      1
    vs Freq-Linear Interval:  100
    vs Freq-Log Type:         0
    vs Freq-Log Interval:     10
    Harmonics:                3
    PolE-Initial:             0
    PolE-Final:               0.2
    PolE-InitialType:         0
    PolE-FinalType:           0
    PolE-SweepRate:           1
    PolE-SweepRateType:       0
    PolE-DataRate:            5
    PolE-SegmentNo:           2
    PolE-IR:                  0
    AmplE-Initial:            10
    AmplE-Final:              200
    AmplE-SweepRate:          1
    AmplE-DataRate:           5
    AmplE-SegmentNo:          2
    PolI-Initial:             0
    PolI-Vertex:              0.01
    PolI-Final:               0.01
    PolI-SweepRate:           0.1
    PolI-SweepRateType:       0
    PolI-DataRate:            5
    PolI-SegmentNo:           2
    AmplI-Initial:            0.1
    AmplI-Final:              10
    AmplI-SweepRate:          0.1
    AmplI-DataRate:           5
    AmplI-SegmentNo:          2
    vs Time-Freq:             1000
    vs Time-Harmonic:         1
    vs Time-Total Time:       100
    vs Time-Time Type:        0
    vs Time-Interval:         5
  End Experiment:             0
  Begin Pstat/Gstat:          1287
    Booster Type:             0
    Booster Name:             None
    Pstat Range High:         4
    Pstat Range Low:          5
    Pstat Range Frequency:    6
    Pstat Range Minimum:      0
    Pstat Limit Range:        0
    Pstat Limit Type:         0
    Pstat Bandwidth:          2
    Pstat Use Aux:            0
    Gstat Range:              0
    Gstat Bandwidth:          2
    Filter:                   1
    Error Beep:               1
    Bias Rejection:           1
    Attenuator:               2
    Grounding:                0
    Calibration File
  End Pstat/Gstat:            1287
  Begin Analyzer:             1260
    Z60 Mode:                 3
    Z60 GD Freq-:             5
    Z60 GD Freq+:             5
    Bias Voltage:             0
    Auto Integration Type:    0
    Integration Time Type:    0
    Integration Seconds:      0.2
    Integration Cycles:       1
    Delay Time Type:          1
    Delay Seconds:            0
    Delay Cycles:             0
    Source:                   2
    SourceI:                  1
    Error Beep:               0
    Range V1:                 0
    Coupling V1:              0
    Input V1:                 0
    Outer V1:                 1
    Location V1:              0
    Range V2:                 0
    Coupling V2:              0
    Input V2:                 0
    Outer V2:                 1
    Location V2:              0
    Coupling I:               0
  End Analyzer:               1260
  Begin Information:          Cell Information
    Surface Area:             1
    Density:                  0
    Weight:                   0
    Polarity:                 0
    PolarityI:                0
    Corrosion Unit Type:      0
    Reference Type:           0
    Reference Potential:      0
    User-Defined Potential:   0
    Stern-Geary:              26
  End Information:            Cell Information
  Null Configuration:         0,3,0,1,3200000,0.1
  Data Points:                77
  Freq(Hz)	Ampl	Bias	Time(Sec)	Z'(a)	Z''(b)	Aux	Err	Range
End Comments
3.200000E+06	2.0000E-02	2.5000E-03	2.620000E+00	4.2791E+01	8.5164E+01	0.0000E+00	0	4
2.541851E+06	2.0000E-02	2.5000E-03	3.320000E+00	4.6146E+01	3.7707E+01	0.0000E+00	0	4
2.019064E+06	2.0000E-02	2.5000E-03	4.010000E+00	8.2878E+01	3.5661E+01	0.0000E+00	0	4
1.603799E+06	2.0000E-02	2.5000E-03	4.730000E+00	8.1061E+01	1.8651E+01	0.0000E+00	0	4
1.273943E+06	2.0000E-02	2.5000E-03	5.440000E+00	7.7128E+01	1.3298E+01	0.0000E+00	0	4
1.011929E+06	2.0000E-02	2.5000E-03	6.130000E+00	7.0044E+01	8.0177E+00	0.0000E+00	0	4
8.038037E+05	2.0000E-02	2.5000E-03	6.840000E+00	6.7894E+01	3.5073E+00	0.0000E+00	0	4
6.384839E+05	2.0000E-02	2.5000E-03	9.300000E+00	6.8567E+01	-9.0277E-01	0.0000E+00	0	4
5.071658E+05	2.0000E-02	2.5000E-03	1.000000E+01	7.0338E+01	-4.3134E+00	0.0000E+00	0	4
4.028561E+05	2.0000E-02	2.5000E-03	1.069000E+01	7.2601E+01	-6.9288E+00	0.0000E+00	0	4
3.200000E+05	2.0000E-02	2.5000E-03	1.141000E+01	7.4817E+01	-9.1736E+00	0.0000E+00	0	4
2.541850E+05	2.0000E-02	2.5000E-03	1.210000E+01	7.7173E+01	-1.1113E+01	0.0000E+00	0	4
2.019063E+05	2.0000E-02	2.5000E-03	1.291000E+01	7.9693E+01	-1.2845E+01	0.0000E+00	0	4
1.603799E+05	2.0000E-02	2.5000E-03	1.374000E+01	8.2256E+01	-1.4304E+01	0.0000E+00	0	4
1.273943E+05	2.0000E-02	2.5000E-03	1.456000E+01	8.4937E+01	-1.5632E+01	0.0000E+00	0	4
1.011929E+05	2.0000E-02	2.5000E-03	1.538000E+01	8.7777E+01	-1.6792E+01	0.0000E+00	0	4
8.038037E+04	2.0000E-02	2.5000E-03	1.619000E+01	9.0755E+01	-1.7852E+01	0.0000E+00	0	4
6.384839E+04	2.0000E-02	2.5000E-03	2.030000E+01	9.3821E+01	-1.9140E+01	0.0000E+00	0	4
5.071658E+04	2.0000E-02	2.5000E-03	2.110000E+01	9.6305E+01	-1.9890E+01	0.0000E+00	0	4
4.028561E+04	2.0000E-02	2.5000E-03	2.193000E+01	1.0006E+02	-2.0859E+01	0.0000E+00	0	4
3.200000E+04	2.0000E-02	2.5000E-03	2.275000E+01	1.0336E+02	-2.1840E+01	0.0000E+00	0	4
2.541850E+04	2.0000E-02	2.5000E-03	2.357000E+01	1.0675E+02	-2.2500E+01	0.0000E+00	0	4
2.019063E+04	2.0000E-02	2.5000E-03	2.437000E+01	1.1022E+02	-2.3142E+01	0.0000E+00	0	4
1.603799E+04	2.0000E-02	2.5000E-03	2.521000E+01	1.1386E+02	-2.3628E+01	0.0000E+00	0	4
1.273943E+04	2.0000E-02	2.5000E-03	2.602000E+01	1.1736E+02	-2.4231E+01	0.0000E+00	0	4
1.011929E+04	2.0000E-02	2.5000E-03	2.685000E+01	1.2127E+02	-2.4586E+01	0.0000E+00	0	4
8.038037E+03	2.0000E-02	2.5000E-03	2.779000E+01	1.2484E+02	-2.5194E+01	0.0000E+00	0	4
6.384839E+03	2.0000E-02	2.5000E-03	2.860000E+01	1.2859E+02	-2.5727E+01	0.0000E+00	0	4
5.071658E+03	2.0000E-02	2.5000E-03	2.942000E+01	1.3241E+02	-2.6164E+01	0.0000E+00	0	4
4.028561E+03	2.0000E-02	2.5000E-03	3.023000E+01	1.3629E+02	-2.6681E+01	0.0000E+00	0	4
3.200000E+03	2.0000E-02	2.5000E-03	3.106000E+01	1.4002E+02	-2.6987E+01	0.0000E+00	0	4
2.541850E+03	2.0000E-02	2.5000E-03	3.200000E+01	1.4390E+02	-2.7595E+01	0.0000E+00	0	4
2.019063E+03	2.0000E-02	2.5000E-03	3.280000E+01	1.4792E+02	-2.7964E+01	0.0000E+00	0	4
1.603799E+03	2.0000E-02	2.5000E-03	3.364000E+01	1.5148E+02	-2.8448E+01	0.0000E+00	0	4
1.273943E+03	2.0000E-02	2.5000E-03	3.446000E+01	1.5543E+02	-2.9570E+01	0.0000E+00	0	4
1.011929E+03	2.0000E-02	2.5000E-03	3.540000E+01	1.5959E+02	-3.0141E+01	0.0000E+00	0	4
8.038037E+02	2.0000E-02	2.5000E-03	3.632000E+01	1.6183E+02	-3.1321E+01	0.0000E+00	0	4
6.384839E+02	2.0000E-02	2.5000E-03	3.725000E+01	1.6726E+02	-3.2569E+01	0.0000E+00	0	4
5.071658E+02	2.0000E-02	2.5000E-03	3.819000E+01	1.6948E+02	-3.4247E+01	0.0000E+00	0	4
4.028561E+02	2.0000E-02	2.5000E-03	3.912000E+01	1.7344E+02	-3.6444E+01	0.0000E+00	0	4
3.200000E+02	2.0000E-02	2.5000E-03	4.007000E+01	1.7504E+02	-5.0599E+01	0.0000E+00	0	4
2.541850E+02	2.0000E-02	2.5000E-03	4.265000E+01	1.8205E+02	-4.4050E+01	0.0000E+00	0	4
2.019064E+02	2.0000E-02	2.5000E-03	4.346000E+01	1.8797E+02	-4.8980E+01	0.0000E+00	0	4
1.603799E+02	2.0000E-02	2.5000E-03	4.429000E+01	1.9007E+02	-5.3447E+01	0.0000E+00	0	4
1.273943E+02	2.0000E-02	2.5000E-03	4.510000E+01	1.9548E+02	-6.2144E+01	0.0000E+00	0	4
1.011929E+02	2.0000E-02	2.5000E-03	4.593000E+01	1.9875E+02	-6.9156E+01	0.0000E+00	0	4
8.038037E+01	2.0000E-02	2.5000E-03	4.674000E+01	2.0981E+02	-7.2572E+01	0.0000E+00	0	4
6.384839E+01	2.0000E-02	2.5000E-03	4.754000E+01	1.8759E+02	-8.0442E+01	0.0000E+00	0	4
5.071658E+01	2.0000E-02	2.5000E-03	4.837000E+01	2.3586E+02	-1.0580E+02	0.0000E+00	0	4
4.028561E+01	2.0000E-02	2.5000E-03	4.921000E+01	2.6136E+02	-1.0796E+02	0.0000E+00	0	4
3.200000E+01	2.0000E-02	2.5000E-03	5.002000E+01	2.7416E+02	-1.3259E+02	0.0000E+00	0	4
2.541850E+01	2.0000E-02	2.5000E-03	5.096000E+01	2.8563E+02	-1.5607E+02	0.0000E+00	0	4
2.019063E+01	2.0000E-02	2.5000E-03	5.189000E+01	3.2454E+02	-1.6524E+02	0.0000E+00	0	4
1.603799E+01	2.0000E-02	2.5000E-03	5.282000E+01	3.5087E+02	-1.7612E+02	0.0000E+00	0	4
1.273943E+01	2.0000E-02	2.5000E-03	5.375000E+01	3.8172E+02	-1.8794E+02	0.0000E+00	0	4
1.011929E+01	2.0000E-02	2.5000E-03	5.468000E+01	4.2682E+02	-1.7825E+02	0.0000E+00	0	4
8.038040E+00	2.0000E-02	2.5000E-03	5.552000E+01	4.4970E+02	-1.8998E+02	0.0000E+00	0	4
6.384840E+00	2.0000E-02	2.5000E-03	5.657000E+01	4.9347E+02	-1.7264E+02	0.0000E+00	0	4
5.071660E+00	2.0000E-02	2.5000E-03	5.866000E+01	5.1457E+02	-1.8048E+02	0.0000E+00	0	5
4.028560E+00	2.0000E-02	2.5000E-03	6.006000E+01	5.3801E+02	-1.7732E+02	0.0000E+00	1	5
3.200000E+00	2.0000E-02	2.5000E-03	6.125000E+01	5.5647E+02	-1.8265E+02	0.0000E+00	1	5
2.541850E+00	2.0000E-02	2.5000E-03	6.265000E+01	5.8419E+02	-1.7080E+02	0.0000E+00	1	5
2.019060E+00	2.0000E-02	2.5000E-03	6.404000E+01	6.1095E+02	-1.5931E+02	0.0000E+00	1	5
1.603800E+00	2.0000E-02	2.5000E-03	6.535000E+01	6.2650E+02	-1.2947E+02	0.0000E+00	1	5
1.273940E+00	2.0000E-02	2.5000E-03	6.688000E+01	6.5689E+02	-1.3593E+02	0.0000E+00	1	5
1.011930E+00	2.0000E-02	2.5000E-03	6.850000E+01	6.8491E+02	-1.3447E+02	0.0000E+00	1	5
8.038000E-01	2.0000E-02	2.5000E-03	7.038000E+01	7.0003E+02	-1.3027E+02	0.0000E+00	1	5
6.384800E-01	2.0000E-02	2.5000E-03	7.366000E+01	7.1438E+02	-1.1712E+02	0.0000E+00	1	5
5.071700E-01	2.0000E-02	2.5000E-03	7.635000E+01	7.3106E+02	-1.0780E+02	0.0000E+00	1	5
4.028600E-01	2.0000E-02	2.5000E-03	7.950000E+01	7.4749E+02	-1.0408E+02	0.0000E+00	1	5
3.200000E-01	2.0000E-02	2.5000E-03	8.325000E+01	7.6139E+02	-1.0092E+02	0.0000E+00	1	5
2.541900E-01	2.0000E-02	2.5000E-03	8.793000E+01	7.7568E+02	-8.8877E+01	0.0000E+00	1	5
2.019100E-01	2.0000E-02	2.5000E-03	9.356000E+01	7.8858E+02	-8.2938E+01	0.0000E+00	1	5
1.603800E-01	2.0000E-02	2.5000E-03	1.005600E+02	7.9770E+02	-7.4768E+01	0.0000E+00	1	5
1.273900E-01	2.0000E-02	2.5000E-03	1.091200E+02	8.0645E+02	-6.8187E+01	0.0000E+00	1	5
1.011900E-01	2.0000E-02	2.5000E-03	1.196500E+02	8.1462E+02	-6.0996E+01	0.0000E+00	1	5
1.000000E-01	2.0000E-02	2.5000E-03	1.303100E+02	8.1518E+02	-6.0747E+01	0.0000E+00	1	5
