ZPLOT2 ASCII
  Measured Data, ZPlot:       3.5f
  Experiment Type:            Sweep Frequency, Control Voltage
  Date:                       11-04-2019
  Time:                       16:48:58
  Open Circuit Potential (V): 0.0023
  Begin User Comments:        0
  End User Comments:          0
  Begin Experiment:           0
    Potential-DC:             0
    Potential-DC Type:        0
    Potential-AC:             20
    Potential-Monitor Type:   0
    Potential-Monitor TargetI:1
    Potential-Monitor Limit:  3000
    Potential-Monitor Error:  25
    Current-DC:               0
    Current-AC:               0.1
    Current-Monitor Type:     0
    Current-Monitor TargetE:  20
    Current-Monitor Limit:    60
    Current-Monitor Error:    25
    vs Freq-Initial:          3200000
    vs Freq-Final:            0.1
    vs Freq-Lin/Log Type:     1
    vs Freq-Linear Type:      1
    vs Freq-Linear Interval:  100
    vs Freq-Log Type:         0
    vs Freq-Log Interval:     10
    Harmonics:                3
    PolE-Initial:             0
    PolE-Final:               0.2
    PolE-InitialType:         0
    PolE-FinalType:           0
    PolE-SweepRate:           1
    PolE-SweepRateType:       0
    PolE-DataRate:            5
    PolE-SegmentNo:           2
    PolE-IR:                  0
    AmplE-Initial:            10
    AmplE-Final:              200
    AmplE-SweepRate:          1
    AmplE-DataRate:           5
    AmplE-SegmentNo:          2
    PolI-Initial:             0
    PolI-Vertex:              0.01
    PolI-Final:               0.01
    PolI-SweepRate:           0.1
    PolI-SweepRateType:       0
    PolI-DataRate:            5
    PolI-SegmentNo:           2
    AmplI-Initial:            0.1
    AmplI-Final:              10
    AmplI-SweepRate:          0.1
    AmplI-DataRate:           5
    AmplI-SegmentNo:          2
    vs Time-Freq:             1000
    vs Time-Harmonic:         1
    vs Time-Total Time:       100
    vs Time-Time Type:        0
    vs Time-Interval:         5
  End Experiment:             0
  Begin Pstat/Gstat:          1287
    Booster Type:             0
    Booster Name:             None
    Pstat Range High:         4
    Pstat Range Low:          5
    Pstat Range Frequency:    6
    Pstat Range Minimum:      0
    Pstat Limit Range:        0
    Pstat Limit Type:         0
    Pstat Bandwidth:          2
    Pstat Use Aux:            0
    Gstat Range:              0
    Gstat Bandwidth:          2
    Filter:                   1
    Error Beep:               1
    Bias Rejection:           1
    Attenuator:               2
    Grounding:                0
    Calibration File
  End Pstat/Gstat:            1287
  Begin Analyzer:             1260
    Z60 Mode:                 3
    Z60 GD Freq-:             5
    Z60 GD Freq+:             5
    Bias Voltage:             0
    Auto Integration Type:    0
    Integration Time Type:    0
    Integration Seconds:      0.2
    Integration Cycles:       1
    Delay Time Type:          1
    Delay Seconds:            0
    Delay Cycles:             0
    Source:                   2
    SourceI:                  1
    Error Beep:               0
    Range V1:                 0
    Coupling V1:              0
    Input V1:                 0
    Outer V1:                 1
    Location V1:              0
    Range V2:                 0
    Coupling V2:              0
    Input V2:                 0
    Outer V2:                 1
    Location V2:              0
    Coupling I:               0
  End Analyzer:               1260
  Begin Information:          Cell Information
    Surface Area:             1
    Density:                  0
    Weight:                   0
    Polarity:                 0
    PolarityI:                0
    Corrosion Unit Type:      0
    Reference Type:           0
    Reference Potential:      0
    User-Defined Potential:   0
    Stern-Geary:              26
  End Information:            Cell Information
  Null Configuration:         0,3,0,1,3200000,0.1
  Data Points:                77
  Freq(Hz)	Ampl	Bias	Time(Sec)	Z'(a)	Z''(b)	Aux	Err	Range
End Comments
3.200000E+06	2.0000E-02	2.3000E-03	2.640000E+00	9.8215E+01	1.9979E+02	0.0000E+00	0	4
2.541851E+06	2.0000E-02	2.3000E-03	3.360000E+00	1.0814E+02	1.4332E+02	0.0000E+00	0	4
2.019064E+06	2.0000E-02	2.3000E-03	4.030000E+00	1.5335E+02	1.1621E+02	0.0000E+00	0	4
1.603799E+06	2.0000E-02	2.3000E-03	4.750000E+00	2.2061E+02	9.4401E+01	0.0000E+00	0	4
1.273943E+06	2.0000E-02	2.3000E-03	5.450000E+00	2.5109E+02	6.6747E+01	0.0000E+00	0	4
1.011929E+06	2.0000E-02	2.3000E-03	6.160000E+00	2.1219E+02	3.4792E+01	0.0000E+00	0	4
8.038037E+05	2.0000E-02	2.3000E-03	6.860000E+00	2.0021E+02	1.8466E+01	0.0000E+00	0	4
6.384839E+05	2.0000E-02	2.3000E-03	9.300000E+00	1.9794E+02	7.6432E+00	0.0000E+00	0	4
5.071658E+05	2.0000E-02	2.3000E-03	1.002000E+01	1.9991E+02	6.3258E-01	0.0000E+00	0	4
4.028561E+05	2.0000E-02	2.3000E-03	1.073000E+01	2.0357E+02	-3.7867E+00	0.0000E+00	0	4
3.200000E+05	2.0000E-02	2.3000E-03	1.143000E+01	2.0725E+02	-7.2236E+00	0.0000E+00	0	4
2.541850E+05	2.0000E-02	2.3000E-03	1.213000E+01	2.1048E+02	-1.0331E+01	0.0000E+00	0	4
2.019063E+05	2.0000E-02	2.3000E-03	1.283000E+01	2.1317E+02	-1.2157E+01	0.0000E+00	0	4
1.603799E+05	2.0000E-02	2.3000E-03	1.353000E+01	2.1648E+02	-1.4423E+01	0.0000E+00	0	4
1.273943E+05	2.0000E-02	2.3000E-03	1.434000E+01	2.1945E+02	-1.6041E+01	0.0000E+00	0	4
1.011929E+05	2.0000E-02	2.3000E-03	1.517000E+01	2.2300E+02	-1.7695E+01	0.0000E+00	0	4
8.038037E+04	2.0000E-02	2.3000E-03	1.597000E+01	2.2665E+02	-1.8805E+01	0.0000E+00	0	4
6.384839E+04	2.0000E-02	2.3000E-03	1.998000E+01	2.2918E+02	-2.0145E+01	0.0000E+00	0	4
5.071658E+04	2.0000E-02	2.3000E-03	2.091000E+01	2.3226E+02	-2.1649E+01	0.0000E+00	0	4
4.028561E+04	2.0000E-02	2.3000E-03	2.171000E+01	2.3735E+02	-2.2804E+01	0.0000E+00	0	4
3.200000E+04	2.0000E-02	2.3000E-03	2.254000E+01	2.4058E+02	-2.3544E+01	0.0000E+00	0	4
2.541850E+04	2.0000E-02	2.3000E-03	2.336000E+01	2.4433E+02	-2.4504E+01	0.0000E+00	0	4
2.019063E+04	2.0000E-02	2.3000E-03	2.419000E+01	2.4750E+02	-2.5308E+01	0.0000E+00	0	4
1.603799E+04	2.0000E-02	2.3000E-03	2.500000E+01	2.5243E+02	-2.6304E+01	0.0000E+00	0	4
1.273943E+04	2.0000E-02	2.3000E-03	2.583000E+01	2.5569E+02	-2.6455E+01	0.0000E+00	0	4
1.011929E+04	2.0000E-02	2.3000E-03	2.663000E+01	2.5944E+02	-2.7882E+01	0.0000E+00	0	4
8.038037E+03	2.0000E-02	2.3000E-03	2.745000E+01	2.6401E+02	-2.7098E+01	0.0000E+00	0	4
6.384839E+03	2.0000E-02	2.3000E-03	2.828000E+01	2.6794E+02	-2.7340E+01	0.0000E+00	0	4
5.071658E+03	2.0000E-02	2.3000E-03	2.910000E+01	2.7248E+02	-2.8031E+01	0.0000E+00	0	4
4.028561E+03	2.0000E-02	2.3000E-03	2.992000E+01	2.7529E+02	-2.8093E+01	0.0000E+00	0	4
3.200000E+03	2.0000E-02	2.3000E-03	3.073000E+01	2.8109E+02	-2.9305E+01	0.0000E+00	0	4
2.541850E+03	2.0000E-02	2.3000E-03	3.155000E+01	2.8538E+02	-3.0242E+01	0.0000E+00	0	4
2.019063E+03	2.0000E-02	2.3000E-03	3.238000E+01	2.8798E+02	-3.0050E+01	0.0000E+00	0	4
1.603799E+03	2.0000E-02	2.3000E-03	3.331000E+01	2.9468E+02	-3.1796E+01	0.0000E+00	0	4
1.273943E+03	2.0000E-02	2.3000E-03	3.424000E+01	2.9756E+02	-3.1533E+01	0.0000E+00	0	4
1.011929E+03	2.0000E-02	2.3000E-03	3.518000E+01	3.0003E+02	-3.0069E+01	0.0000E+00	0	4
8.038037E+02	2.0000E-02	2.3000E-03	3.612000E+01	3.2469E+02	-2.8536E+01	0.0000E+00	0	4
6.384839E+02	2.0000E-02	2.3000E-03	3.706000E+01	3.0197E+02	-3.1837E+01	0.0000E+00	0	4
5.071658E+02	2.0000E-02	2.3000E-03	3.799000E+01	3.0664E+02	-3.3145E+01	0.0000E+00	0	4
4.028561E+02	2.0000E-02	2.3000E-03	3.891000E+01	3.1028E+02	-3.6470E+01	0.0000E+00	0	4
3.200000E+02	2.0000E-02	2.3000E-03	3.984000E+01	2.7250E+02	-2.3339E+01	0.0000E+00	0	4
2.541850E+02	2.0000E-02	2.3000E-03	4.244000E+01	3.2523E+02	-4.6182E+01	0.0000E+00	0	4
2.019064E+02	2.0000E-02	2.3000E-03	4.325000E+01	3.3253E+02	-4.8816E+01	0.0000E+00	0	4
1.603799E+02	2.0000E-02	2.3000E-03	4.407000E+01	3.2476E+02	-5.1260E+01	0.0000E+00	0	4
1.273943E+02	2.0000E-02	2.3000E-03	4.489000E+01	3.4968E+02	-6.1376E+01	0.0000E+00	0	4
1.011929E+02	2.0000E-02	2.3000E-03	4.572000E+01	3.8063E+02	-8.1879E+01	0.0000E+00	0	4
8.038037E+01	2.0000E-02	2.3000E-03	4.653000E+01	3.5204E+02	-1.2472E+02	0.0000E+00	0	4
6.384839E+01	2.0000E-02	2.3000E-03	4.734000E+01	2.9315E+02	-3.0814E+02	0.0000E+00	0	4
5.071658E+01	2.0000E-02	2.3000E-03	4.819000E+01	3.7381E+02	-1.0841E+02	0.0000E+00	0	4
4.028561E+01	2.0000E-02	2.3000E-03	4.899000E+01	3.4620E+02	-1.1555E+02	0.0000E+00	0	4
3.200000E+01	2.0000E-02	2.3000E-03	4.982000E+01	4.1653E+02	-1.5569E+02	0.0000E+00	0	4
2.541850E+01	2.0000E-02	2.3000E-03	5.063000E+01	4.4314E+02	-1.6783E+02	0.0000E+00	0	4
2.019063E+01	2.0000E-02	2.3000E-03	5.157000E+01	4.5363E+02	-1.8942E+02	0.0000E+00	0	4
1.603799E+01	2.0000E-02	2.3000E-03	5.240000E+01	4.8869E+02	-1.8570E+02	0.0000E+00	0	4
1.273943E+01	2.0000E-02	2.3000E-03	5.332000E+01	5.3795E+02	-1.6925E+02	0.0000E+00	0	4
1.011929E+01	2.0000E-02	2.3000E-03	5.426000E+01	5.3182E+02	-2.2612E+02	0.0000E+00	0	4
8.038040E+00	2.0000E-02	2.3000E-03	5.520000E+01	5.9086E+02	-1.9945E+02	0.0000E+00	0	4
6.384840E+00	2.0000E-02	2.3000E-03	5.625000E+01	6.5627E+02	-1.5377E+02	0.0000E+00	0	4
5.071660E+00	2.0000E-02	2.3000E-03	5.858000E+01	6.7186E+02	-1.8090E+02	0.0000E+00	0	5
4.028560E+00	2.0000E-02	2.3000E-03	5.976000E+01	6.9600E+02	-1.6604E+02	0.0000E+00	1	5
3.200000E+00	2.0000E-02	2.3000E-03	6.082000E+01	6.9350E+02	-2.2059E+02	0.0000E+00	1	5
2.541850E+00	2.0000E-02	2.3000E-03	6.186000E+01	7.5786E+02	-1.4183E+02	0.0000E+00	0	5
2.019060E+00	2.0000E-02	2.3000E-03	6.325000E+01	7.5775E+02	-1.8461E+02	0.0000E+00	1	5
1.603800E+00	2.0000E-02	2.3000E-03	6.456000E+01	7.4354E+02	-1.4969E+02	0.0000E+00	1	5
1.273940E+00	2.0000E-02	2.3000E-03	6.608000E+01	8.0213E+02	-1.4291E+02	0.0000E+00	0	5
1.011930E+00	2.0000E-02	2.3000E-03	6.770000E+01	8.4964E+02	-1.2601E+02	0.0000E+00	0	5
8.038000E-01	2.0000E-02	2.3000E-03	6.959000E+01	8.3416E+02	-1.3344E+02	0.0000E+00	1	5
6.384800E-01	2.0000E-02	2.3000E-03	7.322000E+01	8.7521E+02	-1.1943E+02	0.0000E+00	1	5
5.071700E-01	2.0000E-02	2.3000E-03	7.589000E+01	8.9238E+02	-1.3418E+02	0.0000E+00	1	5
4.028600E-01	2.0000E-02	2.3000E-03	7.907000E+01	9.1398E+02	-1.1150E+02	0.0000E+00	1	5
3.200000E-01	2.0000E-02	2.3000E-03	8.294000E+01	9.3202E+02	-8.9327E+01	0.0000E+00	1	5
2.541900E-01	2.0000E-02	2.3000E-03	8.762000E+01	9.3872E+02	-9.3197E+01	0.0000E+00	1	5
2.019100E-01	2.0000E-02	2.3000E-03	9.321000E+01	9.5298E+02	-8.4996E+01	0.0000E+00	1	5
1.603800E-01	2.0000E-02	2.3000E-03	1.001300E+02	9.6417E+02	-7.9198E+01	0.0000E+00	1	5
1.273900E-01	2.0000E-02	2.3000E-03	1.086800E+02	9.7082E+02	-7.2577E+01	0.0000E+00	1	5
1.011900E-01	2.0000E-02	2.3000E-03	1.193400E+02	9.8868E+02	-6.5084E+01	0.0000E+00	1	5
1.000000E-01	2.0000E-02	2.3000E-03	1.301000E+02	9.8111E+02	-6.1329E+01	0.0000E+00	1	5
