ZPLOT2 ASCII
  Measured Data, ZPlot:       3.5f
  Experiment Type:            Sweep Frequency, Control Voltage
  Date:                       11-06-2019
  Time:                       08:16:40
  Open Circuit Potential (V): 0.0009
  Begin User Comments:        0
  End User Comments:          0
  Begin Experiment:           0
    Potential-DC:             0
    Potential-DC Type:        1
    Potential-AC:             30
    Potential-Monitor Type:   0
    Potential-Monitor TargetI:1
    Potential-Monitor Limit:  3000
    Potential-Monitor Error:  25
    Current-DC:               0
    Current-AC:               0.1
    Current-Monitor Type:     0
    Current-Monitor TargetE:  20
    Current-Monitor Limit:    60
    Current-Monitor Error:    25
    vs Freq-Initial:          1000
    vs Freq-Final:            0.1
    vs Freq-Lin/Log Type:     1
    vs Freq-Linear Type:      1
    vs Freq-Linear Interval:  100
    vs Freq-Log Type:         0
    vs Freq-Log Interval:     9
    Harmonics:                3
    PolE-Initial:             0
    PolE-Final:               0.2
    PolE-InitialType:         0
    PolE-FinalType:           0
    PolE-SweepRate:           1
    PolE-SweepRateType:       0
    PolE-DataRate:            5
    PolE-SegmentNo:           2
    PolE-IR:                  0
    AmplE-Initial:            10
    AmplE-Final:              200
    AmplE-SweepRate:          1
    AmplE-DataRate:           5
    AmplE-SegmentNo:          2
    PolI-Initial:             0
    PolI-Vertex:              0.01
    PolI-Final:               0.01
    PolI-SweepRate:           0.1
    PolI-SweepRateType:       0
    PolI-DataRate:            5
    PolI-SegmentNo:           2
    AmplI-Initial:            0.1
    AmplI-Final:              10
    AmplI-SweepRate:          0.1
    AmplI-DataRate:           5
    AmplI-SegmentNo:          2
    vs Time-Freq:             0.001
    vs Time-Harmonic:         1
    vs Time-Total Time:       100
    vs Time-Time Type:        0
    vs Time-Interval:         5
  End Experiment:             0
  Begin Pstat/Gstat:          1287
    Booster Type:             0
    Booster Name:             None
    Pstat Range High:         4
    Pstat Range Low:          4
    Pstat Range Frequency:    1
    Pstat Range Minimum:      0
    Pstat Limit Range:        0
    Pstat Limit Type:         2
    Pstat Bandwidth:          2
    Pstat Use Aux:            0
    Gstat Range:              0
    Gstat Bandwidth:          2
    Filter:                   1
    Error Beep:               1
    Bias Rejection:           1
    Attenuator:               0
    Grounding:                0
    Calibration File
  End Pstat/Gstat:            1287
  Begin Analyzer:             1260
    Z60 Mode:                 3
    Z60 GD Freq-:             5
    Z60 GD Freq+:             5
    Bias Voltage:             0
    Auto Integration Type:    0
    Integration Time Type:    0
    Integration Seconds:      0.2
    Integration Cycles:       1
    Delay Time Type:          1
    Delay Seconds:            0
    Delay Cycles:             0
    Source:                   2
    SourceI:                  1
    Error Beep:               0
    Range V1:                 0
    Coupling V1:              0
    Input V1:                 0
    Outer V1:                 1
    Location V1:              0
    Range V2:                 0
    Coupling V2:              0
    Input V2:                 0
    Outer V2:                 1
    Location V2:              0
    Coupling I:               0
  End Analyzer:               1260
  Begin Information:          Cell Information
    Surface Area:             1
    Density:                  0
    Weight:                   0
    Polarity:                 0
    PolarityI:                0
    Corrosion Unit Type:      0
    Reference Type:           0
    Reference Potential:      0
    User-Defined Potential:   0
    Stern-Geary:              26
  End Information:            Cell Information
  Null Configuration:         0,3,0,1,1000,0.1
  Data Points:                37
  Freq(Hz)	Ampl	Bias	Time(Sec)	Z'(a)	Z''(b)	Aux	Err	Range
End Comments
1.000000E+03	3.0000E-02	0.0000E+00	2.910000E+00	4.9733E+02	-1.8894E+02	0.0000E+00	0	4
7.742637E+02	3.0000E-02	0.0000E+00	3.860000E+00	5.1872E+02	-1.8583E+02	0.0000E+00	0	4
5.994843E+02	3.0000E-02	0.0000E+00	4.790000E+00	5.3981E+02	-2.0548E+02	0.0000E+00	0	4
4.641589E+02	3.0000E-02	0.0000E+00	5.730000E+00	5.7818E+02	-2.2379E+02	0.0000E+00	0	4
3.593814E+02	3.0000E-02	0.0000E+00	6.670000E+00	5.5599E+02	-2.0159E+02	0.0000E+00	0	4
2.782560E+02	3.0000E-02	0.0000E+00	9.250000E+00	6.4484E+02	-2.6087E+02	0.0000E+00	0	4
2.154435E+02	3.0000E-02	0.0000E+00	1.019000E+01	7.2069E+02	-2.9763E+02	0.0000E+00	0	4
1.668100E+02	3.0000E-02	0.0000E+00	1.110000E+01	6.9464E+02	-2.9739E+02	0.0000E+00	0	4
1.291550E+02	3.0000E-02	0.0000E+00	1.204000E+01	8.0945E+02	-2.6598E+02	0.0000E+00	0	4
1.000000E+02	3.0000E-02	0.0000E+00	1.297000E+01	8.4562E+02	-3.4012E+02	0.0000E+00	0	4
7.742637E+01	3.0000E-02	0.0000E+00	1.391000E+01	8.1959E+02	-4.9527E+02	0.0000E+00	0	4
5.994843E+01	3.0000E-02	0.0000E+00	1.485000E+01	-2.8484E+01	6.2266E+02	0.0000E+00	0	4
4.641589E+01	3.0000E-02	0.0000E+00	1.578000E+01	1.0619E+03	-4.4169E+02	0.0000E+00	0	4
3.593814E+01	3.0000E-02	0.0000E+00	1.672000E+01	1.0564E+03	-2.8725E+02	0.0000E+00	0	4
2.782559E+01	3.0000E-02	0.0000E+00	1.767000E+01	1.0589E+03	-5.4501E+02	0.0000E+00	0	4
2.154435E+01	3.0000E-02	0.0000E+00	1.861000E+01	1.1445E+03	-5.7046E+02	0.0000E+00	0	4
1.668101E+01	3.0000E-02	0.0000E+00	1.954000E+01	1.3720E+03	-5.9051E+02	0.0000E+00	0	4
1.291550E+01	3.0000E-02	0.0000E+00	2.048000E+01	1.3878E+03	-6.7966E+02	0.0000E+00	0	4
1.000000E+01	3.0000E-02	0.0000E+00	2.142000E+01	1.4129E+03	-8.1933E+02	0.0000E+00	0	4
7.742640E+00	3.0000E-02	0.0000E+00	2.245000E+01	1.7906E+03	-7.9783E+02	0.0000E+00	0	4
5.994840E+00	3.0000E-02	0.0000E+00	2.351000E+01	1.6852E+03	-1.1066E+03	0.0000E+00	0	4
4.641590E+00	3.0000E-02	0.0000E+00	2.445000E+01	2.0087E+03	-1.2162E+03	0.0000E+00	0	4
3.593810E+00	3.0000E-02	0.0000E+00	2.551000E+01	2.4410E+03	-1.2643E+03	0.0000E+00	0	4
2.782560E+00	3.0000E-02	0.0000E+00	2.680000E+01	2.8735E+03	-1.2451E+03	0.0000E+00	0	4
2.154430E+00	3.0000E-02	0.0000E+00	2.808000E+01	2.4302E+03	-1.7635E+03	0.0000E+00	0	4
1.668100E+00	3.0000E-02	0.0000E+00	2.937000E+01	3.1345E+03	-1.6125E+03	0.0000E+00	0	4
1.291550E+00	3.0000E-02	0.0000E+00	3.101000E+01	3.9448E+03	-1.9898E+03	0.0000E+00	0	4
1.000000E+00	3.0000E-02	0.0000E+00	3.288000E+01	3.7223E+03	-1.4866E+03	0.0000E+00	0	4
7.742600E-01	3.0000E-02	0.0000E+00	3.487000E+01	4.0065E+03	-1.3600E+03	0.0000E+00	0	4
5.994800E-01	3.0000E-02	0.0000E+00	3.744000E+01	4.2561E+03	-1.3094E+03	0.0000E+00	0	4
4.641600E-01	3.0000E-02	0.0000E+00	4.026000E+01	4.4696E+03	-1.2098E+03	0.0000E+00	0	4
3.593800E-01	3.0000E-02	0.0000E+00	4.388000E+01	4.6437E+03	-1.1304E+03	0.0000E+00	0	4
2.782600E-01	3.0000E-02	0.0000E+00	4.915000E+01	4.8376E+03	-1.0609E+03	0.0000E+00	0	4
2.154400E-01	3.0000E-02	0.0000E+00	5.442000E+01	4.9357E+03	-9.3640E+02	0.0000E+00	0	4
1.668100E-01	3.0000E-02	0.0000E+00	6.226000E+01	5.2357E+03	-9.4716E+02	0.0000E+00	0	4
1.291500E-01	3.0000E-02	0.0000E+00	7.069000E+01	5.3326E+03	-9.4673E+02	0.0000E+00	0	4
1.000000E-01	3.0000E-02	0.0000E+00	8.503000E+01	5.4076E+03	-8.8081E+02	0.0000E+00	0	4
