ZPLOT2 ASCII
  Measured Data, ZPlot:       3.5f
  Experiment Type:            Sweep Frequency, Control Voltage
  Date:                       11-06-2019
  Time:                       08:15:00
  Open Circuit Potential (V): 0.0032
  Begin User Comments:        0
  End User Comments:          0
  Begin Experiment:           0
    Potential-DC:             0
    Potential-DC Type:        1
    Potential-AC:             30
    Potential-Monitor Type:   0
    Potential-Monitor TargetI:1
    Potential-Monitor Limit:  3000
    Potential-Monitor Error:  25
    Current-DC:               0
    Current-AC:               0.1
    Current-Monitor Type:     0
    Current-Monitor TargetE:  20
    Current-Monitor Limit:    60
    Current-Monitor Error:    25
    vs Freq-Initial:          1000000
    vs Freq-Final:            0.1
    vs Freq-Lin/Log Type:     1
    vs Freq-Linear Type:      1
    vs Freq-Linear Interval:  100
    vs Freq-Log Type:         0
    vs Freq-Log Interval:     9
    Harmonics:                3
    PolE-Initial:             0
    PolE-Final:               0.2
    PolE-InitialType:         0
    PolE-FinalType:           0
    PolE-SweepRate:           1
    PolE-SweepRateType:       0
    PolE-DataRate:            5
    PolE-SegmentNo:           2
    PolE-IR:                  0
    AmplE-Initial:            10
    AmplE-Final:              200
    AmplE-SweepRate:          1
    AmplE-DataRate:           5
    AmplE-SegmentNo:          2
    PolI-Initial:             0
    PolI-Vertex:              0.01
    PolI-Final:               0.01
    PolI-SweepRate:           0.1
    PolI-SweepRateType:       0
    PolI-DataRate:            5
    PolI-SegmentNo:           2
    AmplI-Initial:            0.1
    AmplI-Final:              10
    AmplI-SweepRate:          0.1
    AmplI-DataRate:           5
    AmplI-SegmentNo:          2
    vs Time-Freq:             0.001
    vs Time-Harmonic:         1
    vs Time-Total Time:       100
    vs Time-Time Type:        0
    vs Time-Interval:         5
  End Experiment:             0
  Begin Pstat/Gstat:          1287
    Booster Type:             0
    Booster Name:             None
    Pstat Range High:         2
    Pstat Range Low:          2
    Pstat Range Frequency:    1
    Pstat Range Minimum:      0
    Pstat Limit Range:        0
    Pstat Limit Type:         2
    Pstat Bandwidth:          2
    Pstat Use Aux:            0
    Gstat Range:              0
    Gstat Bandwidth:          2
    Filter:                   1
    Error Beep:               1
    Bias Rejection:           1
    Attenuator:               0
    Grounding:                0
    Calibration File
  End Pstat/Gstat:            1287
  Begin Analyzer:             1260
    Z60 Mode:                 3
    Z60 GD Freq-:             5
    Z60 GD Freq+:             5
    Bias Voltage:             0
    Auto Integration Type:    0
    Integration Time Type:    0
    Integration Seconds:      0.2
    Integration Cycles:       1
    Delay Time Type:          1
    Delay Seconds:            0
    Delay Cycles:             0
    Source:                   2
    SourceI:                  1
    Error Beep:               0
    Range V1:                 0
    Coupling V1:              0
    Input V1:                 0
    Outer V1:                 1
    Location V1:              0
    Range V2:                 0
    Coupling V2:              0
    Input V2:                 0
    Outer V2:                 1
    Location V2:              0
    Coupling I:               0
  End Analyzer:               1260
  Begin Information:          Cell Information
    Surface Area:             1
    Density:                  0
    Weight:                   0
    Polarity:                 0
    PolarityI:                0
    Corrosion Unit Type:      0
    Reference Type:           0
    Reference Potential:      0
    User-Defined Potential:   0
    Stern-Geary:              26
  End Information:            Cell Information
  Null Configuration:         0,3,0,1,1000000,0.1
  Data Points:                53
  Freq(Hz)	Ampl	Bias	Time(Sec)	Z'(a)	Z''(b)	Aux	Err	Range
End Comments
1.000000E+06	3.0000E-02	0.0000E+00	2.790000E+00	1.3977E+02	-1.0065E+02	0.0000E+00	0	2
7.742637E+05	3.0000E-02	0.0000E+00	3.580000E+00	1.3539E+02	-7.0663E+01	0.0000E+00	0	2
5.994843E+05	3.0000E-02	0.0000E+00	6.180000E+00	1.3818E+02	-6.6780E+01	0.0000E+00	0	2
4.641589E+05	3.0000E-02	0.0000E+00	6.990000E+00	1.4612E+02	-6.1833E+01	0.0000E+00	0	2
3.593814E+05	3.0000E-02	0.0000E+00	7.820000E+00	1.5322E+02	-5.7210E+01	0.0000E+00	0	2
2.782559E+05	3.0000E-02	0.0000E+00	8.640000E+00	1.5954E+02	-5.3077E+01	0.0000E+00	0	2
2.154435E+05	3.0000E-02	0.0000E+00	9.460000E+00	1.6344E+02	-5.0968E+01	0.0000E+00	0	2
1.668100E+05	3.0000E-02	0.0000E+00	1.028000E+01	1.6955E+02	-5.2086E+01	0.0000E+00	0	2
1.291550E+05	3.0000E-02	0.0000E+00	1.108000E+01	1.7514E+02	-5.3686E+01	0.0000E+00	0	2
1.000000E+05	3.0000E-02	0.0000E+00	1.191000E+01	1.8334E+02	-5.4594E+01	0.0000E+00	0	2
7.742637E+04	3.0000E-02	0.0000E+00	1.274000E+01	1.8990E+02	-5.7036E+01	0.0000E+00	0	2
5.994843E+04	3.0000E-02	0.0000E+00	1.683000E+01	1.9804E+02	-6.1780E+01	0.0000E+00	0	2
4.641589E+04	3.0000E-02	0.0000E+00	1.766000E+01	1.7338E+02	-9.5202E+01	0.0000E+00	0	2
3.593814E+04	3.0000E-02	0.0000E+00	1.847000E+01	2.1339E+02	-9.9262E+01	0.0000E+00	0	2
2.782559E+04	3.0000E-02	0.0000E+00	1.930000E+01	2.3357E+02	-1.0385E+02	0.0000E+00	0	2
2.154435E+04	3.0000E-02	0.0000E+00	2.011000E+01	2.4907E+02	-1.0901E+02	0.0000E+00	0	2
1.668101E+04	3.0000E-02	0.0000E+00	2.093000E+01	2.7313E+02	-1.1338E+02	0.0000E+00	0	2
1.291550E+04	3.0000E-02	0.0000E+00	2.174000E+01	2.9758E+02	-1.2683E+02	0.0000E+00	0	2
1.000000E+04	3.0000E-02	0.0000E+00	2.257000E+01	3.2161E+02	-1.2216E+02	0.0000E+00	0	2
7.742637E+03	3.0000E-02	0.0000E+00	2.339000E+01	3.4512E+02	-1.2693E+02	0.0000E+00	0	2
5.994842E+03	3.0000E-02	0.0000E+00	2.421000E+01	3.5662E+02	-1.2406E+02	0.0000E+00	0	2
4.641589E+03	3.0000E-02	0.0000E+00	2.502000E+01	3.8384E+02	-1.2246E+02	0.0000E+00	0	2
3.593814E+03	3.0000E-02	0.0000E+00	2.584000E+01	4.0467E+02	-1.3064E+02	0.0000E+00	0	2
2.782559E+03	3.0000E-02	0.0000E+00	2.667000E+01	4.1140E+02	-1.2865E+02	0.0000E+00	0	2
2.154435E+03	3.0000E-02	0.0000E+00	2.760000E+01	4.2594E+02	-1.3408E+02	0.0000E+00	0	2
1.668100E+03	3.0000E-02	0.0000E+00	2.843000E+01	4.4616E+02	-1.5543E+02	0.0000E+00	0	2
1.291550E+03	3.0000E-02	0.0000E+00	2.936000E+01	4.7125E+02	-1.6381E+02	0.0000E+00	0	2
1.000000E+03	3.0000E-02	0.0000E+00	3.029000E+01	4.8823E+02	-1.7058E+02	0.0000E+00	0	2
7.742637E+02	3.0000E-02	0.0000E+00	3.123000E+01	5.3019E+02	-2.0472E+02	0.0000E+00	0	2
5.994843E+02	3.0000E-02	0.0000E+00	3.217000E+01	5.4713E+02	-2.0462E+02	0.0000E+00	0	2
4.641589E+02	3.0000E-02	0.0000E+00	3.311000E+01	5.8067E+02	-2.1319E+02	0.0000E+00	0	2
3.593814E+02	3.0000E-02	0.0000E+00	3.403000E+01	5.8577E+02	-3.4443E+02	0.0000E+00	0	2
2.782560E+02	3.0000E-02	0.0000E+00	3.649000E+01	6.5940E+02	-2.5075E+02	0.0000E+00	0	2
2.154435E+02	3.0000E-02	0.0000E+00	3.732000E+01	7.2444E+02	-2.8763E+02	0.0000E+00	0	2
1.668100E+02	3.0000E-02	0.0000E+00	3.825000E+01	7.4148E+02	-4.0061E+02	0.0000E+00	0	2
1.291550E+02	3.0000E-02	0.0000E+00	3.918000E+01	7.9101E+02	-3.8783E+02	0.0000E+00	0	2
1.000000E+02	3.0000E-02	0.0000E+00	4.022000E+01	8.4151E+02	-3.3567E+02	0.0000E+00	0	2
7.742637E+01	3.0000E-02	0.0000E+00	4.106000E+01	1.0856E+03	-2.8785E+02	0.0000E+00	0	2
5.994843E+01	3.0000E-02	0.0000E+00	4.211000E+01	6.2554E+01	5.6214E+02	0.0000E+00	0	2
4.641589E+01	3.0000E-02	0.0000E+00	4.305000E+01	1.0326E+03	-5.0666E+02	0.0000E+00	0	2
3.593814E+01	3.0000E-02	0.0000E+00	4.399000E+01	8.8258E+02	-5.7305E+02	0.0000E+00	0	2
2.782559E+01	3.0000E-02	0.0000E+00	4.493000E+01	1.1426E+03	-5.1815E+02	0.0000E+00	0	2
2.154435E+01	3.0000E-02	0.0000E+00	4.597000E+01	1.2112E+03	-5.4176E+02	0.0000E+00	0	2
1.668101E+01	3.0000E-02	0.0000E+00	4.704000E+01	1.3532E+03	-4.8001E+02	0.0000E+00	0	2
1.291550E+01	3.0000E-02	0.0000E+00	4.807000E+01	1.3123E+03	-7.2877E+02	0.0000E+00	0	2
1.000000E+01	3.0000E-02	0.0000E+00	4.891000E+01	1.4178E+03	-8.0880E+02	0.0000E+00	0	2
7.742640E+00	3.0000E-02	0.0000E+00	4.984000E+01	1.3346E+03	-9.9602E+02	0.0000E+00	0	2
5.994840E+00	3.0000E-02	0.0000E+00	5.089000E+01	1.6553E+03	-1.1034E+03	0.0000E+00	0	2
4.641590E+00	3.0000E-02	0.0000E+00	5.182000E+01	1.7386E+03	-1.3287E+03	0.0000E+00	0	2
3.593810E+00	3.0000E-02	0.0000E+00	5.312000E+01	2.4951E+03	-1.1480E+03	0.0000E+00	0	2
2.782560E+00	3.0000E-02	0.0000E+00	5.438000E+01	1.8666E+03	-1.7674E+03	0.0000E+00	0	2
2.154430E+00	3.0000E-02	0.0000E+00	5.604000E+01	2.7414E+03	-1.3944E+03	0.0000E+00	0	2
1.668100E+00	3.0000E-02	0.0000E+00	5.733000E+01	3.0022E+03	-1.5069E+03	0.0000E+00	0	2
