ZPLOT2 ASCII
  Measured Data, ZPlot:       3.5f
  Experiment Type:            Sweep Frequency, Control Voltage
  Date:                       11-06-2019
  Time:                       08:07:30
  Open Circuit Potential (V): -0.0026
  Begin User Comments:        0
  End User Comments:          0
  Begin Experiment:           0
    Potential-DC:             0
    Potential-DC Type:        1
    Potential-AC:             30
    Potential-Monitor Type:   0
    Potential-Monitor TargetI:1
    Potential-Monitor Limit:  3000
    Potential-Monitor Error:  25
    Current-DC:               0
    Current-AC:               0.1
    Current-Monitor Type:     0
    Current-Monitor TargetE:  20
    Current-Monitor Limit:    60
    Current-Monitor Error:    25
    vs Freq-Initial:          200
    vs Freq-Final:            0.1
    vs Freq-Lin/Log Type:     1
    vs Freq-Linear Type:      1
    vs Freq-Linear Interval:  100
    vs Freq-Log Type:         0
    vs Freq-Log Interval:     9
    Harmonics:                3
    PolE-Initial:             0
    PolE-Final:               0.2
    PolE-InitialType:         0
    PolE-FinalType:           0
    PolE-SweepRate:           1
    PolE-SweepRateType:       0
    PolE-DataRate:            5
    PolE-SegmentNo:           2
    PolE-IR:                  0
    AmplE-Initial:            10
    AmplE-Final:              200
    AmplE-SweepRate:          1
    AmplE-DataRate:           5
    AmplE-SegmentNo:          2
    PolI-Initial:             0
    PolI-Vertex:              0.01
    PolI-Final:               0.01
    PolI-SweepRate:           0.1
    PolI-SweepRateType:       0
    PolI-DataRate:            5
    PolI-SegmentNo:           2
    AmplI-Initial:            0.1
    AmplI-Final:              10
    AmplI-SweepRate:          0.1
    AmplI-DataRate:           5
    AmplI-SegmentNo:          2
    vs Time-Freq:             0.001
    vs Time-Harmonic:         1
    vs Time-Total Time:       100
    vs Time-Time Type:        0
    vs Time-Interval:         5
  End Experiment:             0
  Begin Pstat/Gstat:          1287
    Booster Type:             0
    Booster Name:             None
    Pstat Range High:         2
    Pstat Range Low:          2
    Pstat Range Frequency:    1
    Pstat Range Minimum:      0
    Pstat Limit Range:        0
    Pstat Limit Type:         2
    Pstat Bandwidth:          2
    Pstat Use Aux:            0
    Gstat Range:              0
    Gstat Bandwidth:          2
    Filter:                   1
    Error Beep:               1
    Bias Rejection:           1
    Attenuator:               0
    Grounding:                0
    Calibration File
  End Pstat/Gstat:            1287
  Begin Analyzer:             1260
    Z60 Mode:                 3
    Z60 GD Freq-:             5
    Z60 GD Freq+:             5
    Bias Voltage:             0
    Auto Integration Type:    0
    Integration Time Type:    0
    Integration Seconds:      0.2
    Integration Cycles:       1
    Delay Time Type:          1
    Delay Seconds:            0
    Delay Cycles:             0
    Source:                   2
    SourceI:                  1
    Error Beep:               0
    Range V1:                 0
    Coupling V1:              0
    Input V1:                 0
    Outer V1:                 1
    Location V1:              0
    Range V2:                 0
    Coupling V2:              0
    Input V2:                 0
    Outer V2:                 1
    Location V2:              0
    Coupling I:               0
  End Analyzer:               1260
  Begin Information:          Cell Information
    Surface Area:             1
    Density:                  0
    Weight:                   0
    Polarity:                 0
    PolarityI:                0
    Corrosion Unit Type:      0
    Reference Type:           0
    Reference Potential:      0
    User-Defined Potential:   0
    Stern-Geary:              26
  End Information:            Cell Information
  Null Configuration:         0,3,0,1,200,0.1
  Data Points:                29
  Freq(Hz)	Ampl	Bias	Time(Sec)	Z'(a)	Z''(b)	Aux	Err	Range
End Comments
2.000000E+02	3.0000E-02	0.0000E+00	2.730000E+00	7.3348E+02	-2.9078E+02	0.0000E+00	0	2
1.548527E+02	3.0000E-02	0.0000E+00	3.550000E+00	7.8358E+02	-3.0904E+02	0.0000E+00	0	2
1.198969E+02	3.0000E-02	0.0000E+00	4.380000E+00	3.4889E+02	-2.9276E+02	0.0000E+00	0	2
9.283178E+01	3.0000E-02	0.0000E+00	5.200000E+00	8.2455E+02	-2.4455E+02	0.0000E+00	0	2
7.187627E+01	3.0000E-02	0.0000E+00	6.020000E+00	7.4830E+02	-2.1968E+02	0.0000E+00	0	2
5.565119E+01	3.0000E-02	0.0000E+00	6.830000E+00	8.7519E+02	-3.4597E+02	0.0000E+00	0	2
4.308869E+01	3.0000E-02	0.0000E+00	7.650000E+00	7.9772E+02	-5.0435E+02	0.0000E+00	0	2
3.336201E+01	3.0000E-02	0.0000E+00	8.470000E+00	1.1017E+03	-7.4069E+02	0.0000E+00	0	2
2.583099E+01	3.0000E-02	0.0000E+00	9.300000E+00	1.1807E+03	-5.1256E+02	0.0000E+00	0	2
2.000000E+01	3.0000E-02	0.0000E+00	1.011000E+01	1.2281E+03	-5.5461E+02	0.0000E+00	0	2
1.548527E+01	3.0000E-02	0.0000E+00	1.105000E+01	1.1585E+03	-7.1084E+02	0.0000E+00	0	2
1.198969E+01	3.0000E-02	0.0000E+00	1.198000E+01	1.4053E+03	-7.4006E+02	0.0000E+00	0	2
9.283180E+00	3.0000E-02	0.0000E+00	1.304000E+01	1.5327E+03	-8.0844E+02	0.0000E+00	0	2
7.187630E+00	3.0000E-02	0.0000E+00	1.398000E+01	1.7688E+03	-9.7289E+02	0.0000E+00	0	2
5.565120E+00	3.0000E-02	0.0000E+00	1.503000E+01	1.8023E+03	-1.1546E+03	0.0000E+00	0	2
4.308870E+00	3.0000E-02	0.0000E+00	1.609000E+01	2.0755E+03	-1.3482E+03	0.0000E+00	0	2
3.336200E+00	3.0000E-02	0.0000E+00	1.712000E+01	2.3266E+03	-1.4621E+03	0.0000E+00	0	2
2.583100E+00	3.0000E-02	0.0000E+00	1.853000E+01	2.6299E+03	-1.5930E+03	0.0000E+00	0	2
2.000000E+00	3.0000E-02	0.0000E+00	1.993000E+01	3.0686E+03	-1.5356E+03	0.0000E+00	0	2
1.548530E+00	3.0000E-02	0.0000E+00	2.134000E+01	3.2852E+03	-1.4273E+03	0.0000E+00	0	2
1.198970E+00	3.0000E-02	0.0000E+00	2.287000E+01	3.7067E+03	-1.2852E+03	0.0000E+00	0	2
9.283200E-01	3.0000E-02	0.0000E+00	2.484000E+01	3.7745E+03	-1.3964E+03	0.0000E+00	0	2
7.187600E-01	3.0000E-02	0.0000E+00	2.685000E+01	4.1995E+03	-1.0115E+03	0.0000E+00	0	2
5.565100E-01	3.0000E-02	0.0000E+00	3.071000E+01	4.4329E+03	-8.8189E+02	0.0000E+00	0	2
4.308900E-01	3.0000E-02	0.0000E+00	3.362000E+01	5.4241E+03	-9.0711E+02	0.0000E+00	0	2
3.336200E-01	3.0000E-02	0.0000E+00	3.774000E+01	4.9426E+03	-1.0808E+03	0.0000E+00	1	2
2.583100E-01	3.0000E-02	0.0000E+00	4.333000E+01	5.3212E+03	-1.1135E+03	0.0000E+00	0	2
2.000000E-01	3.0000E-02	0.0000E+00	4.897000E+01	5.0250E+03	-7.3524E+02	0.0000E+00	0	2
1.548500E-01	3.0000E-02	0.0000E+00	5.599000E+01	5.3054E+03	-2.6558E+02	0.0000E+00	0	2
