ZPLOT2 ASCII
  Measured Data, ZPlot:       3.5f
  Experiment Type:            Sweep Frequency, Control Voltage
  Date:                       11-06-2019
  Time:                       07:59:21
  Open Circuit Potential (V): -0.0028
  Begin User Comments:        0
  End User Comments:          0
  Begin Experiment:           0
    Potential-DC:             0
    Potential-DC Type:        1
    Potential-AC:             20
    Potential-Monitor Type:   0
    Potential-Monitor TargetI:1
    Potential-Monitor Limit:  3000
    Potential-Monitor Error:  25
    Current-DC:               0
    Current-AC:               0.1
    Current-Monitor Type:     0
    Current-Monitor TargetE:  20
    Current-Monitor Limit:    60
    Current-Monitor Error:    25
    vs Freq-Initial:          3200000
    vs Freq-Final:            0.1
    vs Freq-Lin/Log Type:     1
    vs Freq-Linear Type:      1
    vs Freq-Linear Interval:  100
    vs Freq-Log Type:         0
    vs Freq-Log Interval:     9
    Harmonics:                3
    PolE-Initial:             0
    PolE-Final:               0.2
    PolE-InitialType:         0
    PolE-FinalType:           0
    PolE-SweepRate:           1
    PolE-SweepRateType:       0
    PolE-DataRate:            5
    PolE-SegmentNo:           2
    PolE-IR:                  0
    AmplE-Initial:            10
    AmplE-Final:              200
    AmplE-SweepRate:          1
    AmplE-DataRate:           5
    AmplE-SegmentNo:          2
    PolI-Initial:             0
    PolI-Vertex:              0.01
    PolI-Final:               0.01
    PolI-SweepRate:           0.1
    PolI-SweepRateType:       0
    PolI-DataRate:            5
    PolI-SegmentNo:           2
    AmplI-Initial:            0.1
    AmplI-Final:              10
    AmplI-SweepRate:          0.1
    AmplI-DataRate:           5
    AmplI-SegmentNo:          2
    vs Time-Freq:             0.001
    vs Time-Harmonic:         1
    vs Time-Total Time:       100
    vs Time-Time Type:        0
    vs Time-Interval:         5
  End Experiment:             0
  Begin Pstat/Gstat:          1287
    Booster Type:             0
    Booster Name:             None
    Pstat Range High:         4
    Pstat Range Low:          0
    Pstat Range Frequency:    50
    Pstat Range Minimum:      0
    Pstat Limit Range:        0
    Pstat Limit Type:         0
    Pstat Bandwidth:          2
    Pstat Use Aux:            0
    Gstat Range:              0
    Gstat Bandwidth:          2
    Filter:                   1
    Error Beep:               1
    Bias Rejection:           1
    Attenuator:               2
    Grounding:                0
    Calibration File
  End Pstat/Gstat:            1287
  Begin Analyzer:             1260
    Z60 Mode:                 3
    Z60 GD Freq-:             5
    Z60 GD Freq+:             5
    Bias Voltage:             0
    Auto Integration Type:    0
    Integration Time Type:    0
    Integration Seconds:      0.2
    Integration Cycles:       1
    Delay Time Type:          1
    Delay Seconds:            0
    Delay Cycles:             0
    Source:                   2
    SourceI:                  1
    Error Beep:               0
    Range V1:                 0
    Coupling V1:              0
    Input V1:                 0
    Outer V1:                 1
    Location V1:              0
    Range V2:                 0
    Coupling V2:              0
    Input V2:                 0
    Outer V2:                 1
    Location V2:              0
    Coupling I:               0
  End Analyzer:               1260
  Begin Information:          Cell Information
    Surface Area:             1
    Density:                  0
    Weight:                   0
    Polarity:                 0
    PolarityI:                0
    Corrosion Unit Type:      0
    Reference Type:           0
    Reference Potential:      0
    User-Defined Potential:   0
    Stern-Geary:              26
  End Information:            Cell Information
  Null Configuration:         0,3,0,1,3200000,0.1
  Data Points:                50
  Freq(Hz)	Ampl	Bias	Time(Sec)	Z'(a)	Z''(b)	Aux	Err	Range
End Comments
3.200000E+06	2.0000E-02	0.0000E+00	2.760000E+00	5.3751E+02	2.1090E+01	0.0000E+00	0	4
2.477644E+06	2.0000E-02	0.0000E+00	3.460000E+00	4.9703E+02	5.0811E+02	0.0000E+00	0	4
1.918350E+06	2.0000E-02	0.0000E+00	4.160000E+00	1.2715E+02	5.2670E+01	0.0000E+00	0	4
1.485308E+06	2.0000E-02	0.0000E+00	4.980000E+00	4.6585E+01	-3.2329E+01	0.0000E+00	0	4
1.150020E+06	2.0000E-02	0.0000E+00	5.670000E+00	8.3079E+01	-9.6543E+01	0.0000E+00	0	4
8.904190E+05	2.0000E-02	0.0000E+00	6.370000E+00	1.1824E+02	-6.4845E+01	0.0000E+00	0	4
6.894191E+05	2.0000E-02	0.0000E+00	7.060000E+00	1.3487E+02	-6.0685E+01	0.0000E+00	0	4
5.337922E+05	2.0000E-02	0.0000E+00	9.650000E+00	1.5074E+02	-5.5377E+01	0.0000E+00	0	4
4.132959E+05	2.0000E-02	0.0000E+00	1.047000E+01	1.6340E+02	-4.8624E+01	0.0000E+00	0	4
3.200000E+05	2.0000E-02	0.0000E+00	1.129000E+01	1.7022E+02	-4.6000E+01	0.0000E+00	0	4
2.477644E+05	2.0000E-02	0.0000E+00	1.212000E+01	1.7521E+02	-4.3020E+01	0.0000E+00	0	4
1.918350E+05	2.0000E-02	0.0000E+00	1.293000E+01	1.7907E+02	-4.5805E+01	0.0000E+00	0	4
1.485308E+05	2.0000E-02	0.0000E+00	1.375000E+01	1.8528E+02	-4.6725E+01	0.0000E+00	0	4
1.150020E+05	2.0000E-02	0.0000E+00	1.456000E+01	1.9205E+02	-4.8119E+01	0.0000E+00	0	4
8.904190E+04	2.0000E-02	0.0000E+00	1.550000E+01	1.9913E+02	-5.0795E+01	0.0000E+00	0	4
6.894191E+04	2.0000E-02	0.0000E+00	1.644000E+01	1.9651E+02	-4.9293E+01	0.0000E+00	0	4
5.337922E+04	2.0000E-02	0.0000E+00	2.078000E+01	1.9103E+02	-2.5949E+01	0.0000E+00	0	4
4.132959E+04	2.0000E-02	0.0000E+00	2.171000E+01	2.0566E+02	-1.0105E+02	0.0000E+00	0	4
3.200000E+04	2.0000E-02	0.0000E+00	2.277000E+01	2.3170E+02	-1.0332E+02	0.0000E+00	0	4
2.477644E+04	2.0000E-02	0.0000E+00	2.370000E+01	2.5022E+02	-1.0763E+02	0.0000E+00	0	4
1.918350E+04	2.0000E-02	0.0000E+00	2.464000E+01	2.6368E+02	-1.0832E+02	0.0000E+00	0	4
1.485308E+04	2.0000E-02	0.0000E+00	2.558000E+01	2.8935E+02	-1.0467E+02	0.0000E+00	0	4
1.150020E+04	2.0000E-02	0.0000E+00	2.652000E+01	3.1245E+02	-1.2235E+02	0.0000E+00	0	4
8.904190E+03	2.0000E-02	0.0000E+00	2.745000E+01	3.2566E+02	-1.2699E+02	0.0000E+00	0	4
6.894191E+03	2.0000E-02	0.0000E+00	2.837000E+01	3.5917E+02	-1.3378E+02	0.0000E+00	0	4
5.337922E+03	2.0000E-02	0.0000E+00	2.931000E+01	3.7663E+02	-1.3660E+02	0.0000E+00	0	4
4.132959E+03	2.0000E-02	0.0000E+00	3.024000E+01	3.9538E+02	-1.4449E+02	0.0000E+00	0	4
3.200000E+03	2.0000E-02	0.0000E+00	3.118000E+01	4.1635E+02	-1.4658E+02	0.0000E+00	0	4
2.477644E+03	2.0000E-02	0.0000E+00	3.213000E+01	4.3510E+02	-1.5865E+02	0.0000E+00	0	4
1.918350E+03	2.0000E-02	0.0000E+00	3.306000E+01	4.6621E+02	-1.5370E+02	0.0000E+00	0	4
1.485308E+03	2.0000E-02	0.0000E+00	3.401000E+01	4.8294E+02	-1.7637E+02	0.0000E+00	0	4
1.150020E+03	2.0000E-02	0.0000E+00	3.494000E+01	5.1409E+02	-1.9379E+02	0.0000E+00	0	4
8.904190E+02	2.0000E-02	0.0000E+00	3.588000E+01	5.4779E+02	-2.1402E+02	0.0000E+00	0	4
6.894191E+02	2.0000E-02	0.0000E+00	3.690000E+01	5.8030E+02	-2.3180E+02	0.0000E+00	0	4
5.337922E+02	2.0000E-02	0.0000E+00	3.784000E+01	5.9327E+02	-2.4995E+02	0.0000E+00	0	4
4.132959E+02	2.0000E-02	0.0000E+00	3.879000E+01	6.4077E+02	-2.9568E+02	0.0000E+00	0	4
3.200000E+02	2.0000E-02	0.0000E+00	3.985000E+01	1.1196E+03	-3.0150E+02	0.0000E+00	0	4
2.477644E+02	2.0000E-02	0.0000E+00	4.243000E+01	7.3128E+02	-2.5093E+02	0.0000E+00	0	4
1.918350E+02	2.0000E-02	0.0000E+00	4.347000E+01	6.6147E+02	-2.5080E+02	0.0000E+00	0	4
1.485308E+02	2.0000E-02	0.0000E+00	4.430000E+01	9.4751E+02	-3.7529E+02	0.0000E+00	0	4
1.150020E+02	2.0000E-02	0.0000E+00	4.511000E+01	8.8918E+02	-3.7147E+02	0.0000E+00	0	4
8.904190E+01	2.0000E-02	0.0000E+00	4.606000E+01	8.7945E+02	-4.7682E+02	0.0000E+00	0	4
6.894191E+01	2.0000E-02	0.0000E+00	4.688000E+01	7.1826E+02	-4.7248E+02	0.0000E+00	0	4
5.337922E+01	2.0000E-02	0.0000E+00	4.793000E+01	3.8140E+02	-8.4014E+02	0.0000E+00	0	4
4.132959E+01	2.0000E-02	0.0000E+00	4.991000E+01	1.3080E+03	-3.9027E+02	0.0000E+00	0	5
3.200000E+01	2.0000E-02	0.0000E+00	5.085000E+01	1.1102E+03	-7.2725E+02	0.0000E+00	1	5
2.477644E+01	2.0000E-02	0.0000E+00	5.179000E+01	1.3074E+03	-5.8664E+02	0.0000E+00	1	5
1.918350E+01	2.0000E-02	0.0000E+00	5.285000E+01	1.1655E+03	-7.3181E+02	0.0000E+00	1	5
1.485308E+01	2.0000E-02	0.0000E+00	5.377000E+01	1.4248E+03	-7.5194E+02	0.0000E+00	1	5
1.150020E+01	2.0000E-02	0.0000E+00	5.482000E+01	1.6603E+03	-7.1118E+02	0.0000E+00	1	5
