ZPLOT2 ASCII
  Measured Data, ZPlot:       3.5f
  Experiment Type:            Sweep Frequency, Control Voltage
  Date:                       11-06-2019
  Time:                       08:29:16
  Open Circuit Potential (V): 0.1575
  Begin User Comments:        0
  End User Comments:          0
  Begin Experiment:           0
    Potential-DC:             0
    Potential-DC Type:        0
    Potential-AC:             20
    Potential-Monitor Type:   0
    Potential-Monitor TargetI:1
    Potential-Monitor Limit:  3000
    Potential-Monitor Error:  25
    Current-DC:               0
    Current-AC:               0.1
    Current-Monitor Type:     0
    Current-Monitor TargetE:  20
    Current-Monitor Limit:    60
    Current-Monitor Error:    25
    vs Freq-Initial:          3200000
    vs Freq-Final:            0.1
    vs Freq-Lin/Log Type:     1
    vs Freq-Linear Type:      1
    vs Freq-Linear Interval:  100
    vs Freq-Log Type:         0
    vs Freq-Log Interval:     9
    Harmonics:                3
    PolE-Initial:             0
    PolE-Final:               0.2
    PolE-InitialType:         0
    PolE-FinalType:           0
    PolE-SweepRate:           1
    PolE-SweepRateType:       0
    PolE-DataRate:            5
    PolE-SegmentNo:           2
    PolE-IR:                  0
    AmplE-Initial:            10
    AmplE-Final:              200
    AmplE-SweepRate:          1
    AmplE-DataRate:           5
    AmplE-SegmentNo:          2
    PolI-Initial:             0
    PolI-Vertex:              0.01
    PolI-Final:               0.01
    PolI-SweepRate:           0.1
    PolI-SweepRateType:       0
    PolI-DataRate:            5
    PolI-SegmentNo:           2
    AmplI-Initial:            0.1
    AmplI-Final:              10
    AmplI-SweepRate:          0.1
    AmplI-DataRate:           5
    AmplI-SegmentNo:          2
    vs Time-Freq:             0.001
    vs Time-Harmonic:         1
    vs Time-Total Time:       100
    vs Time-Time Type:        0
    vs Time-Interval:         5
  End Experiment:             0
  Begin Pstat/Gstat:          1287
    Booster Type:             0
    Booster Name:             None
    Pstat Range High:         0
    Pstat Range Low:          0
    Pstat Range Frequency:    1
    Pstat Range Minimum:      0
    Pstat Limit Range:        0
    Pstat Limit Type:         2
    Pstat Bandwidth:          2
    Pstat Use Aux:            0
    Gstat Range:              0
    Gstat Bandwidth:          2
    Filter:                   1
    Error Beep:               1
    Bias Rejection:           1
    Attenuator:               2
    Grounding:                0
    Calibration File
  End Pstat/Gstat:            1287
  Begin Analyzer:             1260
    Z60 Mode:                 3
    Z60 GD Freq-:             5
    Z60 GD Freq+:             5
    Bias Voltage:             0
    Auto Integration Type:    0
    Integration Time Type:    0
    Integration Seconds:      0.2
    Integration Cycles:       1
    Delay Time Type:          1
    Delay Seconds:            0
    Delay Cycles:             0
    Source:                   2
    SourceI:                  1
    Error Beep:               0
    Range V1:                 0
    Coupling V1:              0
    Input V1:                 0
    Outer V1:                 1
    Location V1:              0
    Range V2:                 0
    Coupling V2:              0
    Input V2:                 0
    Outer V2:                 1
    Location V2:              0
    Coupling I:               0
  End Analyzer:               1260
  Begin Information:          Cell Information
    Surface Area:             1
    Density:                  0
    Weight:                   0
    Polarity:                 0
    PolarityI:                0
    Corrosion Unit Type:      0
    Reference Type:           0
    Reference Potential:      0
    User-Defined Potential:   0
    Stern-Geary:              26
  End Information:            Cell Information
  Null Configuration:         0,3,0,1,3200000,0.1
  Data Points:                63
  Freq(Hz)	Ampl	Bias	Time(Sec)	Z'(a)	Z''(b)	Aux	Err	Range
End Comments
3.200000E+06	2.0000E-02	1.5750E-01	4.430000E+00	-7.4145E+00	5.1641E+00	0.0000E+00	0	3
2.477644E+06	2.0000E-02	1.5750E-01	7.000000E+00	-1.1744E+03	-1.9311E+03	0.0000E+00	0	5
1.918350E+06	2.0000E-02	1.5750E-01	7.700000E+00	1.8464E+03	5.4689E+03	0.0000E+00	0	5
1.485308E+06	2.0000E-02	1.5750E-01	8.500000E+00	1.2441E+04	2.5205E+04	0.0000E+00	0	5
1.150020E+06	2.0000E-02	1.5750E-01	9.340000E+00	3.6524E+04	2.1655E+04	0.0000E+00	0	5
8.904190E+05	2.0000E-02	1.5750E-01	1.015000E+01	4.3820E+04	1.4182E+04	0.0000E+00	0	5
6.894191E+05	2.0000E-02	1.5750E-01	1.098000E+01	4.3835E+04	1.8234E+04	0.0000E+00	0	5
5.337922E+05	2.0000E-02	1.5750E-01	1.355000E+01	3.4059E+04	2.1401E+04	0.0000E+00	0	5
4.132959E+05	2.0000E-02	1.5750E-01	1.437000E+01	2.4962E+04	2.0278E+04	0.0000E+00	0	5
3.200000E+05	2.0000E-02	1.5750E-01	1.517000E+01	1.8786E+04	1.6900E+04	0.0000E+00	0	5
2.477644E+05	2.0000E-02	1.5750E-01	1.601000E+01	1.5298E+04	1.3231E+04	0.0000E+00	0	5
1.918350E+05	2.0000E-02	1.5750E-01	1.683000E+01	1.3825E+04	1.0192E+04	0.0000E+00	0	5
1.485308E+05	2.0000E-02	1.5750E-01	1.764000E+01	1.2782E+04	7.9217E+03	0.0000E+00	0	5
1.150020E+05	2.0000E-02	1.5750E-01	1.847000E+01	1.2113E+04	6.3262E+03	0.0000E+00	0	5
8.904190E+04	2.0000E-02	1.5750E-01	1.962000E+01	1.1764E+04	4.9950E+03	0.0000E+00	0	5
6.894191E+04	2.0000E-02	1.5750E-01	2.056000E+01	1.1417E+04	4.1099E+03	0.0000E+00	0	5
5.337922E+04	2.0000E-02	1.5750E-01	2.467000E+01	1.0894E+04	3.3373E+03	0.0000E+00	0	5
4.132959E+04	2.0000E-02	1.5750E-01	2.560000E+01	1.0668E+04	2.4810E+03	0.0000E+00	0	5
3.200000E+04	2.0000E-02	1.5750E-01	2.653000E+01	1.0514E+04	1.6969E+03	0.0000E+00	0	5
2.477644E+04	2.0000E-02	1.5750E-01	2.864000E+01	1.1645E+04	3.2158E+03	0.0000E+00	1	6
1.918350E+04	2.0000E-02	1.5750E-01	2.959000E+01	1.1332E+04	2.0793E+03	0.0000E+00	33	6
1.485308E+04	2.0000E-02	1.5750E-01	3.052000E+01	1.1404E+04	1.1972E+03	0.0000E+00	1	6
1.150020E+04	2.0000E-02	1.5750E-01	3.146000E+01	1.1590E+04	1.0550E+03	0.0000E+00	1	6
8.904190E+03	2.0000E-02	1.5750E-01	3.240000E+01	1.1771E+04	5.4897E+02	0.0000E+00	33	6
6.894191E+03	2.0000E-02	1.5750E-01	3.333000E+01	1.1700E+04	-2.4422E+01	0.0000E+00	1	6
5.337922E+03	2.0000E-02	1.5750E-01	3.425000E+01	1.1904E+04	-2.9263E+02	0.0000E+00	33	6
4.132959E+03	2.0000E-02	1.5750E-01	3.519000E+01	1.1993E+04	-4.8895E+02	0.0000E+00	1	6
3.200000E+03	2.0000E-02	1.5750E-01	3.613000E+01	1.2236E+04	-8.1059E+02	0.0000E+00	1	6
2.477644E+03	2.0000E-02	1.5750E-01	3.708000E+01	1.2286E+04	-1.1558E+03	0.0000E+00	1	6
1.918350E+03	2.0000E-02	1.5750E-01	3.812000E+01	1.2308E+04	-1.3366E+03	0.0000E+00	33	6
1.485308E+03	2.0000E-02	1.5750E-01	3.905000E+01	1.2465E+04	-1.6856E+03	0.0000E+00	33	6
1.150020E+03	2.0000E-02	1.5750E-01	4.010000E+01	1.2665E+04	-2.1436E+03	0.0000E+00	1	6
8.904190E+02	2.0000E-02	1.5750E-01	4.104000E+01	1.3393E+04	-2.6076E+03	0.0000E+00	1	6
6.894191E+02	2.0000E-02	1.5750E-01	4.210000E+01	1.3435E+04	-2.9327E+03	0.0000E+00	1	6
5.337922E+02	2.0000E-02	1.5750E-01	4.316000E+01	1.4098E+04	-3.3666E+03	0.0000E+00	1	6
4.132959E+02	2.0000E-02	1.5750E-01	4.420000E+01	1.4276E+04	-4.1784E+03	0.0000E+00	1	6
3.200000E+02	2.0000E-02	1.5750E-01	4.527000E+01	1.8563E+04	-7.7458E+03	0.0000E+00	1	6
2.477644E+02	2.0000E-02	1.5750E-01	4.794000E+01	1.4710E+04	-5.5660E+03	0.0000E+00	33	6
1.918350E+02	2.0000E-02	1.5750E-01	4.889000E+01	1.6803E+04	-7.8657E+03	0.0000E+00	1	6
1.485308E+02	2.0000E-02	1.5750E-01	4.982000E+01	1.6115E+04	-7.0372E+03	0.0000E+00	33	6
1.150020E+02	2.0000E-02	1.5750E-01	5.075000E+01	1.7300E+04	-9.2116E+03	0.0000E+00	33	6
8.904190E+01	2.0000E-02	1.5750E-01	5.170000E+01	1.7482E+04	-1.4303E+04	0.0000E+00	1	6
6.894191E+01	2.0000E-02	1.5750E-01	5.263000E+01	4.6616E+02	-4.5925E+04	0.0000E+00	33	6
5.337922E+01	2.0000E-02	1.5750E-01	5.357000E+01	2.9546E+03	-9.0959E+03	0.0000E+00	1	6
4.132959E+01	2.0000E-02	1.5750E-01	5.451000E+01	2.4988E+04	-1.3296E+04	0.0000E+00	1	6
3.200000E+01	2.0000E-02	1.5750E-01	5.542000E+01	1.7752E+04	-2.0752E+04	0.0000E+00	33	6
2.477644E+01	2.0000E-02	1.5750E-01	5.636000E+01	4.0069E+04	-1.9695E+04	0.0000E+00	1	6
1.918350E+01	2.0000E-02	1.5750E-01	5.729000E+01	2.4394E+04	-4.4328E+04	0.0000E+00	33	6
1.485308E+01	2.0000E-02	1.5750E-01	5.823000E+01	2.2414E+04	-2.7273E+04	0.0000E+00	33	6
1.150020E+01	2.0000E-02	1.5750E-01	5.931000E+01	6.2079E+04	-6.1590E+03	0.0000E+00	33	6
8.904190E+00	2.0000E-02	1.5750E-01	6.025000E+01	1.4374E+04	-3.1265E+04	0.0000E+00	33	6
6.894190E+00	2.0000E-02	1.5750E-01	6.130000E+01	7.4027E+04	-1.5003E+04	0.0000E+00	33	6
5.337920E+00	2.0000E-02	1.5750E-01	6.248000E+01	2.1588E+04	-3.9318E+04	0.0000E+00	33	6
4.132960E+00	2.0000E-02	1.5750E-01	6.574000E+01	1.2297E+05	-1.8745E+05	0.0000E+00	1	7
3.200000E+00	2.0000E-02	1.5750E-01	6.692000E+01	1.2163E+05	-2.1227E+05	0.0000E+00	33	7
2.477640E+00	2.0000E-02	1.5750E-01	6.842000E+01	4.5109E+05	-8.6382E+04	0.0000E+00	33	7
1.918350E+00	2.0000E-02	1.5750E-01	6.972000E+01	6.1325E+05	-4.5155E+05	0.0000E+00	33	7
1.485310E+00	2.0000E-02	1.5750E-01	7.111000E+01	3.5101E+05	-2.8864E+05	0.0000E+00	1	7
1.150020E+00	2.0000E-02	1.5750E-01	7.277000E+01	3.1095E+05	-2.7160E+05	0.0000E+00	33	7
8.904200E-01	2.0000E-02	1.5750E-01	7.464000E+01	3.7411E+05	-3.1989E+05	0.0000E+00	33	7
6.894200E-01	2.0000E-02	1.5750E-01	7.686000E+01	5.2389E+05	-3.3090E+05	0.0000E+00	33	7
5.337900E-01	2.0000E-02	1.5750E-01	7.953000E+01	5.5115E+05	-4.1565E+05	0.0000E+00	33	7
4.133000E-01	2.0000E-02	1.5750E-01	8.272000E+01	5.7405E+05	-4.2222E+05	0.0000E+00	33	7
