ZPLOT2 ASCII
  Measured Data, ZPlot:       3.5f
  Experiment Type:            Sweep Frequency, Control Voltage
  Date:                       11-04-2019
  Time:                       18:51:23
  Open Circuit Potential (V): 0.0037
  Begin User Comments:        0
  End User Comments:          0
  Begin Experiment:           0
    Potential-DC:             0
    Potential-DC Type:        0
    Potential-AC:             20
    Potential-Monitor Type:   0
    Potential-Monitor TargetI:1
    Potential-Monitor Limit:  3000
    Potential-Monitor Error:  25
    Current-DC:               0
    Current-AC:               0.1
    Current-Monitor Type:     0
    Current-Monitor TargetE:  20
    Current-Monitor Limit:    60
    Current-Monitor Error:    25
    vs Freq-Initial:          3200000
    vs Freq-Final:            1
    vs Freq-Lin/Log Type:     1
    vs Freq-Linear Type:      1
    vs Freq-Linear Interval:  100
    vs Freq-Log Type:         0
    vs Freq-Log Interval:     10
    Harmonics:                3
    PolE-Initial:             0
    PolE-Final:               0.2
    PolE-InitialType:         0
    PolE-FinalType:           0
    PolE-SweepRate:           1
    PolE-SweepRateType:       0
    PolE-DataRate:            5
    PolE-SegmentNo:           2
    PolE-IR:                  0
    AmplE-Initial:            10
    AmplE-Final:              200
    AmplE-SweepRate:          1
    AmplE-DataRate:           5
    AmplE-SegmentNo:          2
    PolI-Initial:             0
    PolI-Vertex:              0.01
    PolI-Final:               0.01
    PolI-SweepRate:           0.1
    PolI-SweepRateType:       0
    PolI-DataRate:            5
    PolI-SegmentNo:           2
    AmplI-Initial:            0.1
    AmplI-Final:              10
    AmplI-SweepRate:          0.1
    AmplI-DataRate:           5
    AmplI-SegmentNo:          2
    vs Time-Freq:             1000
    vs Time-Harmonic:         1
    vs Time-Total Time:       100
    vs Time-Time Type:        0
    vs Time-Interval:         5
  End Experiment:             0
  Begin Pstat/Gstat:          1287
    Booster Type:             0
    Booster Name:             None
    Pstat Range High:         0
    Pstat Range Low:          0
    Pstat Range Frequency:    6
    Pstat Range Minimum:      0
    Pstat Limit Range:        0
    Pstat Limit Type:         0
    Pstat Bandwidth:          2
    Pstat Use Aux:            0
    Gstat Range:              0
    Gstat Bandwidth:          2
    Filter:                   1
    Error Beep:               1
    Bias Rejection:           1
    Attenuator:               2
    Grounding:                0
    Calibration File
  End Pstat/Gstat:            1287
  Begin Analyzer:             1260
    Z60 Mode:                 3
    Z60 GD Freq-:             5
    Z60 GD Freq+:             5
    Bias Voltage:             0
    Auto Integration Type:    0
    Integration Time Type:    0
    Integration Seconds:      0.2
    Integration Cycles:       1
    Delay Time Type:          1
    Delay Seconds:            0
    Delay Cycles:             0
    Source:                   2
    SourceI:                  1
    Error Beep:               0
    Range V1:                 0
    Coupling V1:              0
    Input V1:                 0
    Outer V1:                 1
    Location V1:              0
    Range V2:                 0
    Coupling V2:              0
    Input V2:                 0
    Outer V2:                 1
    Location V2:              0
    Coupling I:               0
  End Analyzer:               1260
  Begin Information:          Cell Information
    Surface Area:             1
    Density:                  0
    Weight:                   0
    Polarity:                 0
    PolarityI:                0
    Corrosion Unit Type:      0
    Reference Type:           0
    Reference Potential:      0
    User-Defined Potential:   0
    Stern-Geary:              26
  End Information:            Cell Information
  Null Configuration:         0,3,0,1,3200000,1
  Data Points:                67
  Freq(Hz)	Ampl	Bias	Time(Sec)	Z'(a)	Z''(b)	Aux	Err	Range
End Comments
3.200000E+06	2.0000E-02	3.7000E-03	6.180000E+00	5.9411E-01	-4.7976E-01	0.0000E+00	0	2
2.541851E+06	2.0000E-02	3.7000E-03	6.880000E+00	3.9201E+00	-9.1302E-02	0.0000E+00	0	2
2.019064E+06	2.0000E-02	3.7000E-03	9.330000E+00	8.2067E+00	1.3970E+01	0.0000E+00	0	3
1.603799E+06	2.0000E-02	3.7000E-03	1.003000E+01	3.5384E+01	6.7711E+01	0.0000E+00	0	3
1.273943E+06	2.0000E-02	3.7000E-03	1.249000E+01	-2.7012E+01	2.7165E+02	0.0000E+00	0	4
1.011929E+06	2.0000E-02	3.7000E-03	1.319000E+01	1.3978E+02	1.1045E+02	0.0000E+00	0	4
8.038037E+05	2.0000E-02	3.7000E-03	1.390000E+01	1.2610E+02	4.2429E+01	0.0000E+00	0	4
6.384839E+05	2.0000E-02	3.7000E-03	1.635000E+01	1.1186E+02	2.1445E+01	0.0000E+00	0	4
5.071658E+05	2.0000E-02	3.7000E-03	1.704000E+01	1.0434E+02	1.1843E+01	0.0000E+00	0	4
4.028561E+05	2.0000E-02	3.7000E-03	1.775000E+01	1.0767E+02	1.2834E+01	0.0000E+00	0	4
3.200000E+05	2.0000E-02	3.7000E-03	1.845000E+01	1.0908E+02	6.8573E+00	0.0000E+00	0	4
2.541850E+05	2.0000E-02	3.7000E-03	1.916000E+01	1.0964E+02	4.3967E+00	0.0000E+00	0	4
2.019063E+05	2.0000E-02	3.7000E-03	1.987000E+01	1.1114E+02	2.5796E+00	0.0000E+00	0	4
1.603799E+05	2.0000E-02	3.7000E-03	2.056000E+01	1.1071E+02	4.1574E-02	0.0000E+00	0	4
1.273943E+05	2.0000E-02	3.7000E-03	2.149000E+01	1.1190E+02	-6.9023E-01	0.0000E+00	0	4
1.011929E+05	2.0000E-02	3.7000E-03	2.232000E+01	1.1292E+02	-2.5883E+00	0.0000E+00	0	4
8.038037E+04	2.0000E-02	3.7000E-03	2.313000E+01	1.1465E+02	-3.0068E+00	0.0000E+00	0	4
6.384839E+04	2.0000E-02	3.7000E-03	2.723000E+01	1.1056E+02	-8.0136E+00	0.0000E+00	0	4
5.071658E+04	2.0000E-02	3.7000E-03	2.805000E+01	1.2992E+02	-2.6802E+00	0.0000E+00	0	4
4.028561E+04	2.0000E-02	3.7000E-03	2.888000E+01	1.1292E+02	-4.2659E+00	0.0000E+00	0	4
3.200000E+04	2.0000E-02	3.7000E-03	2.969000E+01	1.1758E+02	-4.3577E+00	0.0000E+00	0	4
2.541850E+04	2.0000E-02	3.7000E-03	3.051000E+01	1.2154E+02	-6.8101E+00	0.0000E+00	0	4
2.019063E+04	2.0000E-02	3.7000E-03	3.133000E+01	1.1871E+02	-6.4132E+00	0.0000E+00	0	4
1.603799E+04	2.0000E-02	3.7000E-03	3.214000E+01	1.2093E+02	-7.2752E+00	0.0000E+00	0	4
1.273943E+04	2.0000E-02	3.7000E-03	3.296000E+01	1.2206E+02	-9.2287E+00	0.0000E+00	0	4
1.011929E+04	2.0000E-02	3.7000E-03	3.379000E+01	1.2266E+02	-1.1217E+01	0.0000E+00	0	4
8.038037E+03	2.0000E-02	3.7000E-03	3.460000E+01	1.2429E+02	-7.3953E+00	0.0000E+00	0	4
6.384839E+03	2.0000E-02	3.7000E-03	3.542000E+01	1.2606E+02	-1.0668E+01	0.0000E+00	0	4
5.071658E+03	2.0000E-02	3.7000E-03	3.625000E+01	1.2788E+02	-1.0638E+01	0.0000E+00	0	4
4.028561E+03	2.0000E-02	3.7000E-03	3.707000E+01	1.3042E+02	-1.0396E+01	0.0000E+00	0	4
3.200000E+03	2.0000E-02	3.7000E-03	3.787000E+01	1.3161E+02	-1.1142E+01	0.0000E+00	0	4
2.541850E+03	2.0000E-02	3.7000E-03	3.870000E+01	1.3217E+02	-1.1013E+01	0.0000E+00	0	4
2.019063E+03	2.0000E-02	3.7000E-03	3.953000E+01	1.3514E+02	-1.1294E+01	0.0000E+00	0	4
1.603799E+03	2.0000E-02	3.7000E-03	4.046000E+01	1.3670E+02	-1.2415E+01	0.0000E+00	0	4
1.273943E+03	2.0000E-02	3.7000E-03	4.140000E+01	1.3665E+02	-1.3589E+01	0.0000E+00	0	4
1.011929E+03	2.0000E-02	3.7000E-03	4.232000E+01	1.3776E+02	-1.2488E+01	0.0000E+00	0	4
8.038037E+02	2.0000E-02	3.7000E-03	4.325000E+01	1.4422E+02	-1.0622E+01	0.0000E+00	0	4
6.384839E+02	2.0000E-02	3.7000E-03	4.419000E+01	1.4183E+02	-1.3426E+01	0.0000E+00	0	4
5.071658E+02	2.0000E-02	3.7000E-03	4.513000E+01	1.4157E+02	-1.2770E+01	0.0000E+00	0	4
4.028561E+02	2.0000E-02	3.7000E-03	4.608000E+01	1.4431E+02	-1.4419E+01	0.0000E+00	0	4
3.200000E+02	2.0000E-02	3.7000E-03	4.713000E+01	1.3551E+02	2.3088E+00	0.0000E+00	0	4
2.541850E+02	2.0000E-02	3.7000E-03	4.970000E+01	1.4727E+02	-1.7853E+01	0.0000E+00	0	4
2.019064E+02	2.0000E-02	3.7000E-03	5.053000E+01	1.5032E+02	-2.0289E+01	0.0000E+00	0	4
1.603799E+02	2.0000E-02	3.7000E-03	5.132000E+01	1.5188E+02	-2.0926E+01	0.0000E+00	0	4
1.273943E+02	2.0000E-02	3.7000E-03	5.216000E+01	1.5122E+02	-2.2767E+01	0.0000E+00	0	4
1.011929E+02	2.0000E-02	3.7000E-03	5.297000E+01	1.5668E+02	-3.3153E+01	0.0000E+00	0	4
8.038037E+01	2.0000E-02	3.7000E-03	5.380000E+01	1.6018E+02	-2.1746E+01	0.0000E+00	0	4
6.384839E+01	2.0000E-02	3.7000E-03	5.461000E+01	2.3649E+02	-4.4565E+01	0.0000E+00	0	4
5.071658E+01	2.0000E-02	3.7000E-03	5.544000E+01	1.7045E+02	-4.0820E+01	0.0000E+00	0	4
4.028561E+01	2.0000E-02	3.7000E-03	5.626000E+01	1.6432E+02	-5.0421E+01	0.0000E+00	0	4
3.200000E+01	2.0000E-02	3.7000E-03	5.706000E+01	1.8752E+02	-5.0781E+01	0.0000E+00	0	4
2.541850E+01	2.0000E-02	3.7000E-03	5.799000E+01	1.9451E+02	-4.5687E+01	0.0000E+00	0	4
2.019063E+01	2.0000E-02	3.7000E-03	5.883000E+01	2.0165E+02	-5.8681E+01	0.0000E+00	0	4
1.603799E+01	2.0000E-02	3.7000E-03	5.976000E+01	2.1479E+02	-5.2504E+01	0.0000E+00	0	4
1.273943E+01	2.0000E-02	3.7000E-03	6.068000E+01	2.2090E+02	-5.7472E+01	0.0000E+00	0	4
1.011929E+01	2.0000E-02	3.7000E-03	6.161000E+01	2.3684E+02	-4.3428E+01	0.0000E+00	0	4
8.038040E+00	2.0000E-02	3.7000E-03	6.246000E+01	2.4330E+02	-4.6934E+01	0.0000E+00	0	4
6.384840E+00	2.0000E-02	3.7000E-03	6.351000E+01	2.4712E+02	-5.1425E+01	0.0000E+00	0	4
5.071660E+00	2.0000E-02	3.7000E-03	6.457000E+01	2.5609E+02	-4.2068E+01	0.0000E+00	0	4
4.028560E+00	2.0000E-02	3.7000E-03	6.574000E+01	2.6120E+02	-4.5415E+01	0.0000E+00	0	4
3.200000E+00	2.0000E-02	3.7000E-03	6.678000E+01	2.6928E+02	-3.4541E+01	0.0000E+00	0	4
2.541850E+00	2.0000E-02	3.7000E-03	6.783000E+01	2.7552E+02	-2.0040E+01	0.0000E+00	0	4
2.019060E+00	2.0000E-02	3.7000E-03	6.925000E+01	2.7785E+02	-2.6594E+01	0.0000E+00	0	4
1.603800E+00	2.0000E-02	3.7000E-03	7.053000E+01	2.7598E+02	-2.8713E+01	0.0000E+00	0	4
1.273940E+00	2.0000E-02	3.7000E-03	7.195000E+01	2.8169E+02	-2.5550E+01	0.0000E+00	0	4
1.011930E+00	2.0000E-02	3.7000E-03	7.357000E+01	2.8700E+02	-2.6148E+01	0.0000E+00	0	4
1.000000E+00	2.0000E-02	3.7000E-03	7.521000E+01	2.8627E+02	-2.3150E+01	0.0000E+00	0	4
