ZPLOT2 ASCII
  Measured Data, ZPlot:       3.5f
  Experiment Type:            Sweep Frequency, Control Voltage
  Date:                       11-04-2019
  Time:                       21:08:40
  Open Circuit Potential (V): 0
  Begin User Comments:        0
  End User Comments:          0
  Begin Experiment:           0
    Potential-DC:             0
    Potential-DC Type:        0
    Potential-AC:             20
    Potential-Monitor Type:   0
    Potential-Monitor TargetI:1
    Potential-Monitor Limit:  3000
    Potential-Monitor Error:  25
    Current-DC:               0
    Current-AC:               0.1
    Current-Monitor Type:     0
    Current-Monitor TargetE:  20
    Current-Monitor Limit:    60
    Current-Monitor Error:    25
    vs Freq-Initial:          3200000
    vs Freq-Final:            1
    vs Freq-Lin/Log Type:     1
    vs Freq-Linear Type:      1
    vs Freq-Linear Interval:  100
    vs Freq-Log Type:         0
    vs Freq-Log Interval:     10
    Harmonics:                3
    PolE-Initial:             0
    PolE-Final:               0.2
    PolE-InitialType:         0
    PolE-FinalType:           0
    PolE-SweepRate:           1
    PolE-SweepRateType:       0
    PolE-DataRate:            5
    PolE-SegmentNo:           2
    PolE-IR:                  0
    AmplE-Initial:            10
    AmplE-Final:              200
    AmplE-SweepRate:          1
    AmplE-DataRate:           5
    AmplE-SegmentNo:          2
    PolI-Initial:             0
    PolI-Vertex:              0.01
    PolI-Final:               0.01
    PolI-SweepRate:           0.1
    PolI-SweepRateType:       0
    PolI-DataRate:            5
    PolI-SegmentNo:           2
    AmplI-Initial:            0.1
    AmplI-Final:              10
    AmplI-SweepRate:          0.1
    AmplI-DataRate:           5
    AmplI-SegmentNo:          2
    vs Time-Freq:             1000
    vs Time-Harmonic:         1
    vs Time-Total Time:       100
    vs Time-Time Type:        0
    vs Time-Interval:         5
  End Experiment:             0
  Begin Pstat/Gstat:          1287
    Booster Type:             0
    Booster Name:             None
    Pstat Range High:         0
    Pstat Range Low:          0
    Pstat Range Frequency:    6
    Pstat Range Minimum:      0
    Pstat Limit Range:        0
    Pstat Limit Type:         0
    Pstat Bandwidth:          2
    Pstat Use Aux:            0
    Gstat Range:              0
    Gstat Bandwidth:          2
    Filter:                   1
    Error Beep:               1
    Bias Rejection:           1
    Attenuator:               2
    Grounding:                0
    Calibration File
  End Pstat/Gstat:            1287
  Begin Analyzer:             1260
    Z60 Mode:                 3
    Z60 GD Freq-:             5
    Z60 GD Freq+:             5
    Bias Voltage:             0
    Auto Integration Type:    0
    Integration Time Type:    0
    Integration Seconds:      0.2
    Integration Cycles:       1
    Delay Time Type:          1
    Delay Seconds:            0
    Delay Cycles:             0
    Source:                   2
    SourceI:                  1
    Error Beep:               0
    Range V1:                 0
    Coupling V1:              0
    Input V1:                 0
    Outer V1:                 1
    Location V1:              0
    Range V2:                 0
    Coupling V2:              0
    Input V2:                 0
    Outer V2:                 1
    Location V2:              0
    Coupling I:               0
  End Analyzer:               1260
  Begin Information:          Cell Information
    Surface Area:             1
    Density:                  0
    Weight:                   0
    Polarity:                 0
    PolarityI:                0
    Corrosion Unit Type:      0
    Reference Type:           0
    Reference Potential:      0
    User-Defined Potential:   0
    Stern-Geary:              26
  End Information:            Cell Information
  Null Configuration:         0,3,0,1,3200000,1
  Data Points:                67
  Freq(Hz)	Ampl	Bias	Time(Sec)	Z'(a)	Z''(b)	Aux	Err	Range
End Comments
3.200000E+06	2.0000E-02	0.0000E+00	6.210000E+00	1.0049E+00	-1.1882E-02	0.0000E+00	0	2
2.541851E+06	2.0000E-02	0.0000E+00	6.940000E+00	1.9195E+00	4.8518E+00	0.0000E+00	0	2
2.019064E+06	2.0000E-02	0.0000E+00	9.390000E+00	1.8897E+00	3.0955E+01	0.0000E+00	0	3
1.603799E+06	2.0000E-02	0.0000E+00	1.010000E+01	9.9668E+00	2.0731E+01	0.0000E+00	0	3
1.273943E+06	2.0000E-02	0.0000E+00	1.081000E+01	8.4725E+00	1.4613E+01	0.0000E+00	0	3
1.011929E+06	2.0000E-02	0.0000E+00	1.151000E+01	6.6616E+00	1.1708E+01	0.0000E+00	0	3
8.038037E+05	2.0000E-02	0.0000E+00	1.221000E+01	5.6040E+00	9.5209E+00	0.0000E+00	0	3
6.384839E+05	2.0000E-02	0.0000E+00	1.465000E+01	5.1004E+00	7.7890E+00	0.0000E+00	0	3
5.071658E+05	2.0000E-02	0.0000E+00	1.537000E+01	4.7488E+00	6.3570E+00	0.0000E+00	0	3
4.028561E+05	2.0000E-02	0.0000E+00	1.608000E+01	4.4155E+00	5.1089E+00	0.0000E+00	0	3
3.200000E+05	2.0000E-02	0.0000E+00	1.677000E+01	4.1592E+00	3.9242E+00	0.0000E+00	0	3
2.541850E+05	2.0000E-02	0.0000E+00	1.747000E+01	4.1104E+00	2.7815E+00	0.0000E+00	0	3
2.019063E+05	2.0000E-02	0.0000E+00	1.829000E+01	4.4090E+00	1.8449E+00	0.0000E+00	0	3
1.603799E+05	2.0000E-02	0.0000E+00	1.910000E+01	4.8569E+00	1.4402E+00	0.0000E+00	0	3
1.273943E+05	2.0000E-02	0.0000E+00	1.993000E+01	4.9643E+00	1.4342E+00	0.0000E+00	0	3
1.011929E+05	2.0000E-02	0.0000E+00	2.076000E+01	4.7284E+00	1.3413E+00	0.0000E+00	0	3
8.038037E+04	2.0000E-02	0.0000E+00	2.156000E+01	4.4629E+00	1.0113E+00	0.0000E+00	0	3
6.384839E+04	2.0000E-02	0.0000E+00	2.566000E+01	4.3640E+00	5.6682E-01	0.0000E+00	0	3
5.071658E+04	2.0000E-02	0.0000E+00	2.647000E+01	4.5107E+00	1.9381E-01	0.0000E+00	0	3
4.028561E+04	2.0000E-02	0.0000E+00	2.731000E+01	4.6261E+00	-5.3254E-02	0.0000E+00	0	3
3.200000E+04	2.0000E-02	0.0000E+00	2.812000E+01	4.8191E+00	-2.0167E-01	0.0000E+00	0	3
2.541850E+04	2.0000E-02	0.0000E+00	2.893000E+01	4.9872E+00	-2.5807E-01	0.0000E+00	0	3
2.019063E+04	2.0000E-02	0.0000E+00	2.976000E+01	5.1180E+00	-2.6049E-01	0.0000E+00	0	3
1.603799E+04	2.0000E-02	0.0000E+00	3.057000E+01	5.2096E+00	-2.3708E-01	0.0000E+00	0	3
1.273943E+04	2.0000E-02	0.0000E+00	3.140000E+01	5.2719E+00	-2.0223E-01	0.0000E+00	0	3
1.011929E+04	2.0000E-02	0.0000E+00	3.222000E+01	5.3134E+00	-1.6935E-01	0.0000E+00	0	3
8.038037E+03	2.0000E-02	0.0000E+00	3.303000E+01	5.3406E+00	-1.3895E-01	0.0000E+00	0	3
6.384839E+03	2.0000E-02	0.0000E+00	3.386000E+01	5.3576E+00	-1.1198E-01	0.0000E+00	0	3
5.071658E+03	2.0000E-02	0.0000E+00	3.466000E+01	5.3679E+00	-8.9875E-02	0.0000E+00	0	3
4.028561E+03	2.0000E-02	0.0000E+00	3.549000E+01	5.3738E+00	-7.3155E-02	0.0000E+00	0	3
3.200000E+03	2.0000E-02	0.0000E+00	3.630000E+01	5.3772E+00	-5.7916E-02	0.0000E+00	0	3
2.541850E+03	2.0000E-02	0.0000E+00	3.714000E+01	5.3787E+00	-4.6050E-02	0.0000E+00	0	3
2.019063E+03	2.0000E-02	0.0000E+00	3.807000E+01	5.3766E+00	-3.7169E-02	0.0000E+00	0	3
1.603799E+03	2.0000E-02	0.0000E+00	3.912000E+01	5.3749E+00	-2.9305E-02	0.0000E+00	0	3
1.273943E+03	2.0000E-02	0.0000E+00	4.007000E+01	5.3741E+00	-2.4421E-02	0.0000E+00	0	3
1.011929E+03	2.0000E-02	0.0000E+00	4.100000E+01	5.3740E+00	-1.9544E-02	0.0000E+00	0	3
8.038037E+02	2.0000E-02	0.0000E+00	4.194000E+01	5.3689E+00	-1.4995E-02	0.0000E+00	0	3
6.384839E+02	2.0000E-02	0.0000E+00	4.288000E+01	5.3685E+00	-1.3747E-02	0.0000E+00	0	3
5.071658E+02	2.0000E-02	0.0000E+00	4.380000E+01	5.3692E+00	-1.1318E-02	0.0000E+00	0	3
4.028561E+02	2.0000E-02	0.0000E+00	4.473000E+01	5.3665E+00	-9.4045E-03	0.0000E+00	0	3
3.200000E+02	2.0000E-02	0.0000E+00	4.579000E+01	5.3624E+00	-1.8607E-02	0.0000E+00	0	3
2.541850E+02	2.0000E-02	0.0000E+00	4.837000E+01	5.3602E+00	-6.5586E-03	0.0000E+00	0	3
2.019064E+02	2.0000E-02	0.0000E+00	4.918000E+01	5.3595E+00	-6.0355E-03	0.0000E+00	0	3
1.603799E+02	2.0000E-02	0.0000E+00	5.000000E+01	5.3559E+00	-5.0699E-03	0.0000E+00	0	3
1.273943E+02	2.0000E-02	0.0000E+00	5.083000E+01	5.3529E+00	-2.4702E-03	0.0000E+00	0	3
1.011929E+02	2.0000E-02	0.0000E+00	5.164000E+01	5.3511E+00	-1.2844E-03	0.0000E+00	0	3
8.038037E+01	2.0000E-02	0.0000E+00	5.246000E+01	5.3528E+00	-3.7651E-03	0.0000E+00	0	3
6.384839E+01	2.0000E-02	0.0000E+00	5.328000E+01	5.3546E+00	-1.2298E-02	0.0000E+00	0	3
5.071658E+01	2.0000E-02	0.0000E+00	5.411000E+01	5.3465E+00	-1.3008E-03	0.0000E+00	0	3
4.028561E+01	2.0000E-02	0.0000E+00	5.491000E+01	5.3473E+00	2.5427E-03	0.0000E+00	0	3
3.200000E+01	2.0000E-02	0.0000E+00	5.574000E+01	5.3428E+00	-1.2881E-03	0.0000E+00	0	3
2.541850E+01	2.0000E-02	0.0000E+00	5.668000E+01	5.3419E+00	-1.8924E-03	0.0000E+00	0	3
2.019063E+01	2.0000E-02	0.0000E+00	5.760000E+01	5.3402E+00	2.5172E-04	0.0000E+00	0	3
1.603799E+01	2.0000E-02	0.0000E+00	5.843000E+01	5.3388E+00	-3.0286E-04	0.0000E+00	0	3
1.273943E+01	2.0000E-02	0.0000E+00	5.936000E+01	5.3377E+00	-9.7012E-04	0.0000E+00	0	3
1.011929E+01	2.0000E-02	0.0000E+00	6.043000E+01	5.3376E+00	-1.2990E-03	0.0000E+00	0	3
8.038040E+00	2.0000E-02	0.0000E+00	6.136000E+01	5.3366E+00	-7.6743E-04	0.0000E+00	0	3
6.384840E+00	2.0000E-02	0.0000E+00	6.253000E+01	5.3359E+00	-3.7564E-04	0.0000E+00	0	3
5.071660E+00	2.0000E-02	0.0000E+00	6.370000E+01	5.3360E+00	5.8661E-04	0.0000E+00	0	3
4.028560E+00	2.0000E-02	0.0000E+00	6.464000E+01	5.3352E+00	-1.2522E-04	0.0000E+00	0	3
3.200000E+00	2.0000E-02	0.0000E+00	6.580000E+01	5.3346E+00	1.7105E-04	0.0000E+00	0	3
2.541850E+00	2.0000E-02	0.0000E+00	6.721000E+01	5.3349E+00	8.9615E-04	0.0000E+00	0	3
2.019060E+00	2.0000E-02	0.0000E+00	6.861000E+01	5.3357E+00	1.0242E-03	0.0000E+00	0	3
1.603800E+00	2.0000E-02	0.0000E+00	6.991000E+01	5.3370E+00	-2.2223E-04	0.0000E+00	0	3
1.273940E+00	2.0000E-02	0.0000E+00	7.130000E+01	5.3352E+00	-5.3014E-05	0.0000E+00	0	3
1.011930E+00	2.0000E-02	0.0000E+00	7.295000E+01	5.3350E+00	-5.2844E-04	0.0000E+00	0	3
1.000000E+00	2.0000E-02	0.0000E+00	7.459000E+01	5.3347E+00	-9.3371E-05	0.0000E+00	0	3
